<Qucs Dataset 0.0.18>
<indep vds 131>
  -1.30000000000e+00
  -1.29000000000e+00
  -1.28000000000e+00
  -1.27000000000e+00
  -1.26000000000e+00
  -1.25000000000e+00
  -1.24000000000e+00
  -1.23000000000e+00
  -1.22000000000e+00
  -1.21000000000e+00
  -1.20000000000e+00
  -1.19000000000e+00
  -1.18000000000e+00
  -1.17000000000e+00
  -1.16000000000e+00
  -1.15000000000e+00
  -1.14000000000e+00
  -1.13000000000e+00
  -1.12000000000e+00
  -1.11000000000e+00
  -1.10000000000e+00
  -1.09000000000e+00
  -1.08000000000e+00
  -1.07000000000e+00
  -1.06000000000e+00
  -1.05000000000e+00
  -1.04000000000e+00
  -1.03000000000e+00
  -1.02000000000e+00
  -1.01000000000e+00
  -1.00000000000e+00
  -9.90000000000e-01
  -9.80000000000e-01
  -9.70000000000e-01
  -9.60000000000e-01
  -9.50000000000e-01
  -9.40000000000e-01
  -9.30000000000e-01
  -9.20000000000e-01
  -9.10000000000e-01
  -9.00000000000e-01
  -8.90000000000e-01
  -8.80000000000e-01
  -8.70000000000e-01
  -8.60000000000e-01
  -8.50000000000e-01
  -8.40000000000e-01
  -8.30000000000e-01
  -8.20000000000e-01
  -8.10000000000e-01
  -8.00000000000e-01
  -7.90000000000e-01
  -7.80000000000e-01
  -7.70000000000e-01
  -7.60000000000e-01
  -7.50000000000e-01
  -7.40000000000e-01
  -7.30000000000e-01
  -7.20000000000e-01
  -7.10000000000e-01
  -7.00000000000e-01
  -6.90000000000e-01
  -6.80000000000e-01
  -6.70000000000e-01
  -6.60000000000e-01
  -6.50000000000e-01
  -6.40000000000e-01
  -6.30000000000e-01
  -6.20000000000e-01
  -6.10000000000e-01
  -6.00000000000e-01
  -5.90000000000e-01
  -5.80000000000e-01
  -5.70000000000e-01
  -5.60000000000e-01
  -5.50000000000e-01
  -5.40000000000e-01
  -5.30000000000e-01
  -5.20000000000e-01
  -5.10000000000e-01
  -5.00000000000e-01
  -4.90000000000e-01
  -4.80000000000e-01
  -4.70000000000e-01
  -4.60000000000e-01
  -4.50000000000e-01
  -4.40000000000e-01
  -4.30000000000e-01
  -4.20000000000e-01
  -4.10000000000e-01
  -4.00000000000e-01
  -3.90000000000e-01
  -3.80000000000e-01
  -3.70000000000e-01
  -3.60000000000e-01
  -3.50000000000e-01
  -3.40000000000e-01
  -3.30000000000e-01
  -3.20000000000e-01
  -3.10000000000e-01
  -3.00000000000e-01
  -2.90000000000e-01
  -2.80000000000e-01
  -2.70000000000e-01
  -2.60000000000e-01
  -2.50000000000e-01
  -2.40000000000e-01
  -2.30000000000e-01
  -2.20000000000e-01
  -2.10000000000e-01
  -2.00000000000e-01
  -1.90000000000e-01
  -1.80000000000e-01
  -1.70000000000e-01
  -1.60000000000e-01
  -1.50000000000e-01
  -1.40000000000e-01
  -1.30000000000e-01
  -1.20000000000e-01
  -1.10000000000e-01
  -1.00000000000e-01
  -9.00000000000e-02
  -8.00000000000e-02
  -7.00000000000e-02
  -6.00000000000e-02
  -5.00000000000e-02
  -4.00000000000e-02
  -3.00000000000e-02
  -2.00000000000e-02
  -1.00000000000e-02
  +0.00000000000e+00
</indep>
<dep gd vds>
  +9.61200000000e-21
  +8.30900000000e-04
  -3.27600000000e-06
  -3.27000000000e-06
  -3.26400000000e-06
  -3.25800000000e-06
  -3.25200000000e-06
  -3.24600000000e-06
  -3.24000000000e-06
  -3.23400000000e-06
  -3.22700000000e-06
  -3.22100000000e-06
  -3.21400000000e-06
  -3.20700000000e-06
  -3.20100000000e-06
  -3.19400000000e-06
  -3.18600000000e-06
  -3.17900000000e-06
  -3.17200000000e-06
  -3.16400000000e-06
  -3.15600000000e-06
  -3.14800000000e-06
  -3.14000000000e-06
  -3.13200000000e-06
  -3.12300000000e-06
  -3.11400000000e-06
  -3.10500000000e-06
  -3.09600000000e-06
  -3.08600000000e-06
  -3.07600000000e-06
  -3.06600000000e-06
  -3.05500000000e-06
  -3.04400000000e-06
  -3.03200000000e-06
  -3.02000000000e-06
  -3.00700000000e-06
  -2.99400000000e-06
  -2.98100000000e-06
  -2.96600000000e-06
  -2.95200000000e-06
  -2.93600000000e-06
  -2.92000000000e-06
  -2.90300000000e-06
  -2.88500000000e-06
  -2.86600000000e-06
  -2.84600000000e-06
  -2.82500000000e-06
  -2.80400000000e-06
  -2.78100000000e-06
  -2.75700000000e-06
  -2.73100000000e-06
  -2.70400000000e-06
  -2.67600000000e-06
  -2.64600000000e-06
  -2.61500000000e-06
  -2.58100000000e-06
  -2.54700000000e-06
  -2.51000000000e-06
  -2.47100000000e-06
  -2.43000000000e-06
  -2.38700000000e-06
  -2.34200000000e-06
  -2.29500000000e-06
  -2.24600000000e-06
  -2.19400000000e-06
  -2.13900000000e-06
  -2.08300000000e-06
  -2.02400000000e-06
  -1.96300000000e-06
  -1.90000000000e-06
  -1.83400000000e-06
  -1.76700000000e-06
  -1.69800000000e-06
  -1.62700000000e-06
  -1.55400000000e-06
  -1.48100000000e-06
  -1.40600000000e-06
  -1.33100000000e-06
  -1.25600000000e-06
  -1.18000000000e-06
  -1.10500000000e-06
  -1.03100000000e-06
  -9.58500000000e-07
  -8.87300000000e-07
  -8.18200000000e-07
  -7.51600000000e-07
  -6.87900000000e-07
  -6.27600000000e-07
  -5.71300000000e-07
  -5.19400000000e-07
  -4.72700000000e-07
  -4.31900000000e-07
  -3.98200000000e-07
  -3.72900000000e-07
  -3.57900000000e-07
  -3.55600000000e-07
  -3.69400000000e-07
  -4.03800000000e-07
  -4.64800000000e-07
  -5.60300000000e-07
  -7.00400000000e-07
  -8.97400000000e-07
  -1.16600000000e-06
  -1.52200000000e-06
  -1.98300000000e-06
  -2.56400000000e-06
  -3.27700000000e-06
  -4.13100000000e-06
  -5.12900000000e-06
  -6.26600000000e-06
  -7.53800000000e-06
  -8.93200000000e-06
  -1.04400000000e-05
  -1.20400000000e-05
  -1.37300000000e-05
  -1.55000000000e-05
  -1.73200000000e-05
  -1.92000000000e-05
  -2.11100000000e-05
  -2.30600000000e-05
  -2.50400000000e-05
  -2.70300000000e-05
  -2.90400000000e-05
  -3.10500000000e-05
  -3.30600000000e-05
  -3.50700000000e-05
  -3.70800000000e-05
  -3.90700000000e-05
  -4.10300000000e-05
  -4.29300000000e-05
  -4.47800000000e-05
</dep>
<dep ids vds>
  +8.30900000000e-06
  +8.27600000000e-06
  +8.24300000000e-06
  +8.21100000000e-06
  +8.17800000000e-06
  +8.14600000000e-06
  +8.11300000000e-06
  +8.08100000000e-06
  +8.04800000000e-06
  +8.01600000000e-06
  +7.98400000000e-06
  +7.95200000000e-06
  +7.92000000000e-06
  +7.88800000000e-06
  +7.85600000000e-06
  +7.82400000000e-06
  +7.79200000000e-06
  +7.76000000000e-06
  +7.72900000000e-06
  +7.69700000000e-06
  +7.66600000000e-06
  +7.63400000000e-06
  +7.60300000000e-06
  +7.57200000000e-06
  +7.54100000000e-06
  +7.50900000000e-06
  +7.47900000000e-06
  +7.44800000000e-06
  +7.41700000000e-06
  +7.38600000000e-06
  +7.35600000000e-06
  +7.32500000000e-06
  +7.29500000000e-06
  +7.26500000000e-06
  +7.23500000000e-06
  +7.20500000000e-06
  +7.17500000000e-06
  +7.14500000000e-06
  +7.11600000000e-06
  +7.08600000000e-06
  +7.05700000000e-06
  +7.02800000000e-06
  +6.99900000000e-06
  +6.97100000000e-06
  +6.94200000000e-06
  +6.91400000000e-06
  +6.88600000000e-06
  +6.85800000000e-06
  +6.83100000000e-06
  +6.80300000000e-06
  +6.77600000000e-06
  +6.74900000000e-06
  +6.72300000000e-06
  +6.69700000000e-06
  +6.67100000000e-06
  +6.64600000000e-06
  +6.62000000000e-06
  +6.59600000000e-06
  +6.57100000000e-06
  +6.54800000000e-06
  +6.52400000000e-06
  +6.50100000000e-06
  +6.47900000000e-06
  +6.45700000000e-06
  +6.43500000000e-06
  +6.41500000000e-06
  +6.39400000000e-06
  +6.37500000000e-06
  +6.35600000000e-06
  +6.33700000000e-06
  +6.32000000000e-06
  +6.30300000000e-06
  +6.28600000000e-06
  +6.27100000000e-06
  +6.25600000000e-06
  +6.24200000000e-06
  +6.22900000000e-06
  +6.21600000000e-06
  +6.20400000000e-06
  +6.19300000000e-06
  +6.18300000000e-06
  +6.17300000000e-06
  +6.16500000000e-06
  +6.15600000000e-06
  +6.14900000000e-06
  +6.14200000000e-06
  +6.13600000000e-06
  +6.13000000000e-06
  +6.12500000000e-06
  +6.12000000000e-06
  +6.11600000000e-06
  +6.11200000000e-06
  +6.10800000000e-06
  +6.10400000000e-06
  +6.10100000000e-06
  +6.09700000000e-06
  +6.09300000000e-06
  +6.08800000000e-06
  +6.08300000000e-06
  +6.07600000000e-06
  +6.06700000000e-06
  +6.05500000000e-06
  +6.04000000000e-06
  +6.02000000000e-06
  +5.99500000000e-06
  +5.96200000000e-06
  +5.92000000000e-06
  +5.86900000000e-06
  +5.80700000000e-06
  +5.73100000000e-06
  +5.64200000000e-06
  +5.53700000000e-06
  +5.41700000000e-06
  +5.28000000000e-06
  +5.12500000000e-06
  +4.95200000000e-06
  +4.76000000000e-06
  +4.54800000000e-06
  +4.31800000000e-06
  +4.06700000000e-06
  +3.79700000000e-06
  +3.50700000000e-06
  +3.19600000000e-06
  +2.86600000000e-06
  +2.51500000000e-06
  +2.14400000000e-06
  +1.75300000000e-06
  +1.34300000000e-06
  +9.13900000000e-07
  +4.66000000000e-07
  +3.00600000000e-21
</dep>
