<Qucs Dataset 0.0.18>
<indep vds 131>
  -1.30000000000e+00
  -1.29000000000e+00
  -1.28000000000e+00
  -1.27000000000e+00
  -1.26000000000e+00
  -1.25000000000e+00
  -1.24000000000e+00
  -1.23000000000e+00
  -1.22000000000e+00
  -1.21000000000e+00
  -1.20000000000e+00
  -1.19000000000e+00
  -1.18000000000e+00
  -1.17000000000e+00
  -1.16000000000e+00
  -1.15000000000e+00
  -1.14000000000e+00
  -1.13000000000e+00
  -1.12000000000e+00
  -1.11000000000e+00
  -1.10000000000e+00
  -1.09000000000e+00
  -1.08000000000e+00
  -1.07000000000e+00
  -1.06000000000e+00
  -1.05000000000e+00
  -1.04000000000e+00
  -1.03000000000e+00
  -1.02000000000e+00
  -1.01000000000e+00
  -1.00000000000e+00
  -9.90000000000e-01
  -9.80000000000e-01
  -9.70000000000e-01
  -9.60000000000e-01
  -9.50000000000e-01
  -9.40000000000e-01
  -9.30000000000e-01
  -9.20000000000e-01
  -9.10000000000e-01
  -9.00000000000e-01
  -8.90000000000e-01
  -8.80000000000e-01
  -8.70000000000e-01
  -8.60000000000e-01
  -8.50000000000e-01
  -8.40000000000e-01
  -8.30000000000e-01
  -8.20000000000e-01
  -8.10000000000e-01
  -8.00000000000e-01
  -7.90000000000e-01
  -7.80000000000e-01
  -7.70000000000e-01
  -7.60000000000e-01
  -7.50000000000e-01
  -7.40000000000e-01
  -7.30000000000e-01
  -7.20000000000e-01
  -7.10000000000e-01
  -7.00000000000e-01
  -6.90000000000e-01
  -6.80000000000e-01
  -6.70000000000e-01
  -6.60000000000e-01
  -6.50000000000e-01
  -6.40000000000e-01
  -6.30000000000e-01
  -6.20000000000e-01
  -6.10000000000e-01
  -6.00000000000e-01
  -5.90000000000e-01
  -5.80000000000e-01
  -5.70000000000e-01
  -5.60000000000e-01
  -5.50000000000e-01
  -5.40000000000e-01
  -5.30000000000e-01
  -5.20000000000e-01
  -5.10000000000e-01
  -5.00000000000e-01
  -4.90000000000e-01
  -4.80000000000e-01
  -4.70000000000e-01
  -4.60000000000e-01
  -4.50000000000e-01
  -4.40000000000e-01
  -4.30000000000e-01
  -4.20000000000e-01
  -4.10000000000e-01
  -4.00000000000e-01
  -3.90000000000e-01
  -3.80000000000e-01
  -3.70000000000e-01
  -3.60000000000e-01
  -3.50000000000e-01
  -3.40000000000e-01
  -3.30000000000e-01
  -3.20000000000e-01
  -3.10000000000e-01
  -3.00000000000e-01
  -2.90000000000e-01
  -2.80000000000e-01
  -2.70000000000e-01
  -2.60000000000e-01
  -2.50000000000e-01
  -2.40000000000e-01
  -2.30000000000e-01
  -2.20000000000e-01
  -2.10000000000e-01
  -2.00000000000e-01
  -1.90000000000e-01
  -1.80000000000e-01
  -1.70000000000e-01
  -1.60000000000e-01
  -1.50000000000e-01
  -1.40000000000e-01
  -1.30000000000e-01
  -1.20000000000e-01
  -1.10000000000e-01
  -1.00000000000e-01
  -9.00000000000e-02
  -8.00000000000e-02
  -7.00000000000e-02
  -6.00000000000e-02
  -5.00000000000e-02
  -4.00000000000e-02
  -3.00000000000e-02
  -2.00000000000e-02
  -1.00000000000e-02
  +0.00000000000e+00
</indep>
<dep gd vds>
  -1.67100000000e-20
  +2.82900000000e-03
  -9.68100000000e-06
  -9.64800000000e-06
  -9.61300000000e-06
  -9.57700000000e-06
  -9.54000000000e-06
  -9.50100000000e-06
  -9.46000000000e-06
  -9.41800000000e-06
  -9.37500000000e-06
  -9.32900000000e-06
  -9.28200000000e-06
  -9.23200000000e-06
  -9.18100000000e-06
  -9.12700000000e-06
  -9.07200000000e-06
  -9.01400000000e-06
  -8.95300000000e-06
  -8.89000000000e-06
  -8.82500000000e-06
  -8.75700000000e-06
  -8.68600000000e-06
  -8.61200000000e-06
  -8.53500000000e-06
  -8.45500000000e-06
  -8.37100000000e-06
  -8.28500000000e-06
  -8.19400000000e-06
  -8.10100000000e-06
  -8.00300000000e-06
  -7.90200000000e-06
  -7.79800000000e-06
  -7.68900000000e-06
  -7.57600000000e-06
  -7.46000000000e-06
  -7.33900000000e-06
  -7.21400000000e-06
  -7.08500000000e-06
  -6.95200000000e-06
  -6.81500000000e-06
  -6.67400000000e-06
  -6.52900000000e-06
  -6.38000000000e-06
  -6.22800000000e-06
  -6.07100000000e-06
  -5.91100000000e-06
  -5.74800000000e-06
  -5.58200000000e-06
  -5.41300000000e-06
  -5.24100000000e-06
  -5.06700000000e-06
  -4.89100000000e-06
  -4.71300000000e-06
  -4.53400000000e-06
  -4.35500000000e-06
  -4.17500000000e-06
  -3.99500000000e-06
  -3.81600000000e-06
  -3.63900000000e-06
  -3.46300000000e-06
  -3.29000000000e-06
  -3.12000000000e-06
  -2.95400000000e-06
  -2.79400000000e-06
  -2.64100000000e-06
  -2.49500000000e-06
  -2.35900000000e-06
  -2.23600000000e-06
  -2.12700000000e-06
  -2.03700000000e-06
  -1.97000000000e-06
  -1.93200000000e-06
  -1.92900000000e-06
  -1.97200000000e-06
  -2.06900000000e-06
  -2.23400000000e-06
  -2.47700000000e-06
  -2.81400000000e-06
  -3.25400000000e-06
  -3.81000000000e-06
  -4.48800000000e-06
  -5.29200000000e-06
  -6.22200000000e-06
  -7.27700000000e-06
  -8.45100000000e-06
  -9.73600000000e-06
  -1.11200000000e-05
  -1.26100000000e-05
  -1.41700000000e-05
  -1.58100000000e-05
  -1.75200000000e-05
  -1.92800000000e-05
  -2.10900000000e-05
  -2.29400000000e-05
  -2.48300000000e-05
  -2.67400000000e-05
  -2.86700000000e-05
  -3.06200000000e-05
  -3.25900000000e-05
  -3.45600000000e-05
  -3.65300000000e-05
  -3.85000000000e-05
  -4.04700000000e-05
  -4.24400000000e-05
  -4.44000000000e-05
  -4.63400000000e-05
  -4.82800000000e-05
  -5.02000000000e-05
  -5.21100000000e-05
  -5.40000000000e-05
  -5.58800000000e-05
  -5.77300000000e-05
  -5.95700000000e-05
  -6.13900000000e-05
  -6.31900000000e-05
  -6.49700000000e-05
  -6.67300000000e-05
  -6.84600000000e-05
  -7.01800000000e-05
  -7.18700000000e-05
  -7.35300000000e-05
  -7.51800000000e-05
  -7.68000000000e-05
  -7.83900000000e-05
  -7.99600000000e-05
  -8.15100000000e-05
  -8.30200000000e-05
  -8.44900000000e-05
  -8.59100000000e-05
  -8.72800000000e-05
</dep>
<dep ids vds>
  +2.82900000000e-05
  +2.82000000000e-05
  +2.81000000000e-05
  +2.80000000000e-05
  +2.79100000000e-05
  +2.78100000000e-05
  +2.77200000000e-05
  +2.76200000000e-05
  +2.75300000000e-05
  +2.74400000000e-05
  +2.73400000000e-05
  +2.72500000000e-05
  +2.71600000000e-05
  +2.70700000000e-05
  +2.69700000000e-05
  +2.68800000000e-05
  +2.67900000000e-05
  +2.67000000000e-05
  +2.66200000000e-05
  +2.65300000000e-05
  +2.64400000000e-05
  +2.63500000000e-05
  +2.62700000000e-05
  +2.61800000000e-05
  +2.61000000000e-05
  +2.60100000000e-05
  +2.59300000000e-05
  +2.58500000000e-05
  +2.57700000000e-05
  +2.56900000000e-05
  +2.56100000000e-05
  +2.55300000000e-05
  +2.54500000000e-05
  +2.53800000000e-05
  +2.53000000000e-05
  +2.52300000000e-05
  +2.51600000000e-05
  +2.50900000000e-05
  +2.50200000000e-05
  +2.49500000000e-05
  +2.48800000000e-05
  +2.48200000000e-05
  +2.47500000000e-05
  +2.46900000000e-05
  +2.46300000000e-05
  +2.45700000000e-05
  +2.45100000000e-05
  +2.44600000000e-05
  +2.44000000000e-05
  +2.43500000000e-05
  +2.43000000000e-05
  +2.42500000000e-05
  +2.42000000000e-05
  +2.41600000000e-05
  +2.41200000000e-05
  +2.40700000000e-05
  +2.40300000000e-05
  +2.40000000000e-05
  +2.39600000000e-05
  +2.39200000000e-05
  +2.38900000000e-05
  +2.38600000000e-05
  +2.38300000000e-05
  +2.38000000000e-05
  +2.37800000000e-05
  +2.37500000000e-05
  +2.37300000000e-05
  +2.37100000000e-05
  +2.36800000000e-05
  +2.36600000000e-05
  +2.36400000000e-05
  +2.36200000000e-05
  +2.36100000000e-05
  +2.35900000000e-05
  +2.35700000000e-05
  +2.35400000000e-05
  +2.35200000000e-05
  +2.34900000000e-05
  +2.34600000000e-05
  +2.34200000000e-05
  +2.33700000000e-05
  +2.33200000000e-05
  +2.32600000000e-05
  +2.31900000000e-05
  +2.31000000000e-05
  +2.30000000000e-05
  +2.28900000000e-05
  +2.27700000000e-05
  +2.26300000000e-05
  +2.24700000000e-05
  +2.22900000000e-05
  +2.21000000000e-05
  +2.18900000000e-05
  +2.16600000000e-05
  +2.14100000000e-05
  +2.11400000000e-05
  +2.08600000000e-05
  +2.05500000000e-05
  +2.02200000000e-05
  +1.98800000000e-05
  +1.95100000000e-05
  +1.91300000000e-05
  +1.87200000000e-05
  +1.83000000000e-05
  +1.78600000000e-05
  +1.73900000000e-05
  +1.69100000000e-05
  +1.64100000000e-05
  +1.58900000000e-05
  +1.53500000000e-05
  +1.47900000000e-05
  +1.42100000000e-05
  +1.36100000000e-05
  +1.30000000000e-05
  +1.23700000000e-05
  +1.17200000000e-05
  +1.10500000000e-05
  +1.03700000000e-05
  +9.66600000000e-06
  +8.94700000000e-06
  +8.21200000000e-06
  +7.46000000000e-06
  +6.69200000000e-06
  +5.90800000000e-06
  +5.10800000000e-06
  +4.29300000000e-06
  +3.46300000000e-06
  +2.61800000000e-06
  +1.75900000000e-06
  +8.86100000000e-07
  -1.25000000000e-20
</dep>
