<Qucs Dataset 0.0.18>
<indep vds 131>
  -1.30000000000e+00
  -1.29000000000e+00
  -1.28000000000e+00
  -1.27000000000e+00
  -1.26000000000e+00
  -1.25000000000e+00
  -1.24000000000e+00
  -1.23000000000e+00
  -1.22000000000e+00
  -1.21000000000e+00
  -1.20000000000e+00
  -1.19000000000e+00
  -1.18000000000e+00
  -1.17000000000e+00
  -1.16000000000e+00
  -1.15000000000e+00
  -1.14000000000e+00
  -1.13000000000e+00
  -1.12000000000e+00
  -1.11000000000e+00
  -1.10000000000e+00
  -1.09000000000e+00
  -1.08000000000e+00
  -1.07000000000e+00
  -1.06000000000e+00
  -1.05000000000e+00
  -1.04000000000e+00
  -1.03000000000e+00
  -1.02000000000e+00
  -1.01000000000e+00
  -1.00000000000e+00
  -9.90000000000e-01
  -9.80000000000e-01
  -9.70000000000e-01
  -9.60000000000e-01
  -9.50000000000e-01
  -9.40000000000e-01
  -9.30000000000e-01
  -9.20000000000e-01
  -9.10000000000e-01
  -9.00000000000e-01
  -8.90000000000e-01
  -8.80000000000e-01
  -8.70000000000e-01
  -8.60000000000e-01
  -8.50000000000e-01
  -8.40000000000e-01
  -8.30000000000e-01
  -8.20000000000e-01
  -8.10000000000e-01
  -8.00000000000e-01
  -7.90000000000e-01
  -7.80000000000e-01
  -7.70000000000e-01
  -7.60000000000e-01
  -7.50000000000e-01
  -7.40000000000e-01
  -7.30000000000e-01
  -7.20000000000e-01
  -7.10000000000e-01
  -7.00000000000e-01
  -6.90000000000e-01
  -6.80000000000e-01
  -6.70000000000e-01
  -6.60000000000e-01
  -6.50000000000e-01
  -6.40000000000e-01
  -6.30000000000e-01
  -6.20000000000e-01
  -6.10000000000e-01
  -6.00000000000e-01
  -5.90000000000e-01
  -5.80000000000e-01
  -5.70000000000e-01
  -5.60000000000e-01
  -5.50000000000e-01
  -5.40000000000e-01
  -5.30000000000e-01
  -5.20000000000e-01
  -5.10000000000e-01
  -5.00000000000e-01
  -4.90000000000e-01
  -4.80000000000e-01
  -4.70000000000e-01
  -4.60000000000e-01
  -4.50000000000e-01
  -4.40000000000e-01
  -4.30000000000e-01
  -4.20000000000e-01
  -4.10000000000e-01
  -4.00000000000e-01
  -3.90000000000e-01
  -3.80000000000e-01
  -3.70000000000e-01
  -3.60000000000e-01
  -3.50000000000e-01
  -3.40000000000e-01
  -3.30000000000e-01
  -3.20000000000e-01
  -3.10000000000e-01
  -3.00000000000e-01
  -2.90000000000e-01
  -2.80000000000e-01
  -2.70000000000e-01
  -2.60000000000e-01
  -2.50000000000e-01
  -2.40000000000e-01
  -2.30000000000e-01
  -2.20000000000e-01
  -2.10000000000e-01
  -2.00000000000e-01
  -1.90000000000e-01
  -1.80000000000e-01
  -1.70000000000e-01
  -1.60000000000e-01
  -1.50000000000e-01
  -1.40000000000e-01
  -1.30000000000e-01
  -1.20000000000e-01
  -1.10000000000e-01
  -1.00000000000e-01
  -9.00000000000e-02
  -8.00000000000e-02
  -7.00000000000e-02
  -6.00000000000e-02
  -5.00000000000e-02
  -4.00000000000e-02
  -3.00000000000e-02
  -2.00000000000e-02
  -1.00000000000e-02
  +0.00000000000e+00
</indep>
<dep gd vds>
  +0.00000000000e+00
  +5.44600000000e-03
  -1.54700000000e-05
  -1.53000000000e-05
  -1.51200000000e-05
  -1.49400000000e-05
  -1.47600000000e-05
  -1.45700000000e-05
  -1.43800000000e-05
  -1.41800000000e-05
  -1.39800000000e-05
  -1.37700000000e-05
  -1.35600000000e-05
  -1.33400000000e-05
  -1.31200000000e-05
  -1.28900000000e-05
  -1.26600000000e-05
  -1.24300000000e-05
  -1.21900000000e-05
  -1.19400000000e-05
  -1.17000000000e-05
  -1.14500000000e-05
  -1.11900000000e-05
  -1.09300000000e-05
  -1.06700000000e-05
  -1.04100000000e-05
  -1.01500000000e-05
  -9.87800000000e-06
  -9.60900000000e-06
  -9.33900000000e-06
  -9.06900000000e-06
  -8.79800000000e-06
  -8.52700000000e-06
  -8.25700000000e-06
  -7.98900000000e-06
  -7.72400000000e-06
  -7.46200000000e-06
  -7.20500000000e-06
  -6.95400000000e-06
  -6.71100000000e-06
  -6.47700000000e-06
  -6.25600000000e-06
  -6.04900000000e-06
  -5.86100000000e-06
  -5.69600000000e-06
  -5.55900000000e-06
  -5.45700000000e-06
  -5.39500000000e-06
  -5.38200000000e-06
  -5.42700000000e-06
  -5.53800000000e-06
  -5.72400000000e-06
  -5.99200000000e-06
  -6.35000000000e-06
  -6.80300000000e-06
  -7.35400000000e-06
  -8.00400000000e-06
  -8.75300000000e-06
  -9.60000000000e-06
  -1.05400000000e-05
  -1.15700000000e-05
  -1.26900000000e-05
  -1.38900000000e-05
  -1.51600000000e-05
  -1.65100000000e-05
  -1.79100000000e-05
  -1.93800000000e-05
  -2.09000000000e-05
  -2.24700000000e-05
  -2.40800000000e-05
  -2.57300000000e-05
  -2.74100000000e-05
  -2.91300000000e-05
  -3.08700000000e-05
  -3.26300000000e-05
  -3.44100000000e-05
  -3.62000000000e-05
  -3.80100000000e-05
  -3.98300000000e-05
  -4.16500000000e-05
  -4.34700000000e-05
  -4.53000000000e-05
  -4.71200000000e-05
  -4.89400000000e-05
  -5.07500000000e-05
  -5.25600000000e-05
  -5.43500000000e-05
  -5.61400000000e-05
  -5.79200000000e-05
  -5.96800000000e-05
  -6.14200000000e-05
  -6.31600000000e-05
  -6.48700000000e-05
  -6.65700000000e-05
  -6.82600000000e-05
  -6.99200000000e-05
  -7.15700000000e-05
  -7.31900000000e-05
  -7.48000000000e-05
  -7.63900000000e-05
  -7.79600000000e-05
  -7.95100000000e-05
  -8.10400000000e-05
  -8.25500000000e-05
  -8.40400000000e-05
  -8.55000000000e-05
  -8.69500000000e-05
  -8.83800000000e-05
  -8.97900000000e-05
  -9.11800000000e-05
  -9.25400000000e-05
  -9.38900000000e-05
  -9.52200000000e-05
  -9.65300000000e-05
  -9.78200000000e-05
  -9.90900000000e-05
  -1.00300000000e-04
  -1.01600000000e-04
  -1.02800000000e-04
  -1.04000000000e-04
  -1.05200000000e-04
  -1.06300000000e-04
  -1.07400000000e-04
  -1.08600000000e-04
  -1.09600000000e-04
  -1.10700000000e-04
  -1.11800000000e-04
  -1.12800000000e-04
  -1.13800000000e-04
  -1.14800000000e-04
  -1.15700000000e-04
</dep>
<dep ids vds>
  +5.44600000000e-05
  +5.43000000000e-05
  +5.41500000000e-05
  +5.40000000000e-05
  +5.38500000000e-05
  +5.37000000000e-05
  +5.35500000000e-05
  +5.34100000000e-05
  +5.32700000000e-05
  +5.31300000000e-05
  +5.29900000000e-05
  +5.28600000000e-05
  +5.27200000000e-05
  +5.25900000000e-05
  +5.24600000000e-05
  +5.23400000000e-05
  +5.22100000000e-05
  +5.20900000000e-05
  +5.19700000000e-05
  +5.18500000000e-05
  +5.17400000000e-05
  +5.16300000000e-05
  +5.15200000000e-05
  +5.14100000000e-05
  +5.13100000000e-05
  +5.12100000000e-05
  +5.11100000000e-05
  +5.10100000000e-05
  +5.09200000000e-05
  +5.08300000000e-05
  +5.07400000000e-05
  +5.06500000000e-05
  +5.05700000000e-05
  +5.04900000000e-05
  +5.04100000000e-05
  +5.03400000000e-05
  +5.02700000000e-05
  +5.02000000000e-05
  +5.01300000000e-05
  +5.00700000000e-05
  +5.00000000000e-05
  +4.99400000000e-05
  +4.98800000000e-05
  +4.98300000000e-05
  +4.97700000000e-05
  +4.97200000000e-05
  +4.96600000000e-05
  +4.96100000000e-05
  +4.95500000000e-05
  +4.95000000000e-05
  +4.94400000000e-05
  +4.93800000000e-05
  +4.93200000000e-05
  +4.92500000000e-05
  +4.91800000000e-05
  +4.91000000000e-05
  +4.90100000000e-05
  +4.89100000000e-05
  +4.88100000000e-05
  +4.86900000000e-05
  +4.85700000000e-05
  +4.84300000000e-05
  +4.82700000000e-05
  +4.81100000000e-05
  +4.79300000000e-05
  +4.77400000000e-05
  +4.75300000000e-05
  +4.73000000000e-05
  +4.70600000000e-05
  +4.68100000000e-05
  +4.65300000000e-05
  +4.62400000000e-05
  +4.59300000000e-05
  +4.56000000000e-05
  +4.52600000000e-05
  +4.49000000000e-05
  +4.45200000000e-05
  +4.41200000000e-05
  +4.37000000000e-05
  +4.32700000000e-05
  +4.28200000000e-05
  +4.23400000000e-05
  +4.18600000000e-05
  +4.13500000000e-05
  +4.08200000000e-05
  +4.02800000000e-05
  +3.97200000000e-05
  +3.91400000000e-05
  +3.85400000000e-05
  +3.79300000000e-05
  +3.73000000000e-05
  +3.66500000000e-05
  +3.59800000000e-05
  +3.53000000000e-05
  +3.46000000000e-05
  +3.38800000000e-05
  +3.31500000000e-05
  +3.24000000000e-05
  +3.16400000000e-05
  +3.08600000000e-05
  +3.00700000000e-05
  +2.92500000000e-05
  +2.84300000000e-05
  +2.75900000000e-05
  +2.67300000000e-05
  +2.58600000000e-05
  +2.49800000000e-05
  +2.40800000000e-05
  +2.31700000000e-05
  +2.22500000000e-05
  +2.13100000000e-05
  +2.03500000000e-05
  +1.93900000000e-05
  +1.84100000000e-05
  +1.74200000000e-05
  +1.64200000000e-05
  +1.54000000000e-05
  +1.43700000000e-05
  +1.33300000000e-05
  +1.22800000000e-05
  +1.12200000000e-05
  +1.01400000000e-05
  +9.05900000000e-06
  +7.96200000000e-06
  +6.85500000000e-06
  +5.73700000000e-06
  +4.60900000000e-06
  +3.47100000000e-06
  +2.32300000000e-06
  +1.16600000000e-06
  +2.17200000000e-20
</dep>
