<Qucs Dataset 0.0.19>
<indep Vds 131>
  +0.00000000000000000000e+00
  -1.00000000000000002082e-02
  -2.00000000000000004163e-02
  -2.99999999999999988898e-02
  -4.00000000000000008327e-02
  -5.00000000000000027756e-02
  -5.99999999999999977796e-02
  -7.00000000000000066613e-02
  -8.00000000000000016653e-02
  -8.99999999999999966693e-02
  -1.00000000000000005551e-01
  -1.10000000000000000555e-01
  -1.19999999999999995559e-01
  -1.30000000000000004441e-01
  -1.40000000000000013323e-01
  -1.49999999999999994449e-01
  -1.60000000000000003331e-01
  -1.70000000000000012212e-01
  -1.79999999999999993339e-01
  -1.90000000000000002220e-01
  -2.00000000000000011102e-01
  -2.09999999999999992228e-01
  -2.20000000000000001110e-01
  -2.30000000000000009992e-01
  -2.39999999999999991118e-01
  -2.50000000000000000000e-01
  -2.60000000000000008882e-01
  -2.70000000000000017764e-01
  -2.80000000000000026645e-01
  -2.89999999999999980016e-01
  -2.99999999999999988898e-01
  -3.09999999999999997780e-01
  -3.20000000000000006661e-01
  -3.30000000000000015543e-01
  -3.40000000000000024425e-01
  -3.50000000000000033307e-01
  -3.59999999999999986677e-01
  -3.69999999999999995559e-01
  -3.80000000000000004441e-01
  -3.90000000000000013323e-01
  -4.00000000000000022204e-01
  -4.10000000000000031086e-01
  -4.19999999999999984457e-01
  -4.29999999999999993339e-01
  -4.40000000000000002220e-01
  -4.50000000000000011102e-01
  -4.60000000000000019984e-01
  -4.70000000000000028866e-01
  -4.79999999999999982236e-01
  -4.89999999999999991118e-01
  -5.00000000000000000000e-01
  -5.10000000000000008882e-01
  -5.20000000000000017764e-01
  -5.30000000000000026645e-01
  -5.40000000000000035527e-01
  -5.50000000000000044409e-01
  -5.60000000000000053291e-01
  -5.70000000000000062172e-01
  -5.79999999999999960032e-01
  -5.89999999999999968914e-01
  -5.99999999999999977796e-01
  -6.09999999999999986677e-01
  -6.19999999999999995559e-01
  -6.30000000000000004441e-01
  -6.40000000000000013323e-01
  -6.50000000000000022204e-01
  -6.60000000000000031086e-01
  -6.70000000000000039968e-01
  -6.80000000000000048850e-01
  -6.90000000000000057732e-01
  -7.00000000000000066613e-01
  -7.09999999999999964473e-01
  -7.19999999999999973355e-01
  -7.29999999999999982236e-01
  -7.39999999999999991118e-01
  -7.50000000000000000000e-01
  -7.60000000000000008882e-01
  -7.70000000000000017764e-01
  -7.80000000000000026645e-01
  -7.90000000000000035527e-01
  -8.00000000000000044409e-01
  -8.10000000000000053291e-01
  -8.20000000000000062172e-01
  -8.30000000000000071054e-01
  -8.39999999999999968914e-01
  -8.49999999999999977796e-01
  -8.59999999999999986677e-01
  -8.69999999999999995559e-01
  -8.80000000000000004441e-01
  -8.90000000000000013323e-01
  -9.00000000000000022204e-01
  -9.10000000000000031086e-01
  -9.20000000000000039968e-01
  -9.30000000000000048850e-01
  -9.40000000000000057732e-01
  -9.50000000000000066613e-01
  -9.59999999999999964473e-01
  -9.69999999999999973355e-01
  -9.79999999999999982236e-01
  -9.89999999999999991118e-01
  -1.00000000000000000000e+00
  -1.01000000000000000888e+00
  -1.02000000000000001776e+00
  -1.03000000000000002665e+00
  -1.04000000000000003553e+00
  -1.05000000000000004441e+00
  -1.06000000000000005329e+00
  -1.07000000000000006217e+00
  -1.08000000000000007105e+00
  -1.09000000000000007994e+00
  -1.10000000000000008882e+00
  -1.11000000000000009770e+00
  -1.12000000000000010658e+00
  -1.13000000000000011546e+00
  -1.14000000000000012434e+00
  -1.15000000000000013323e+00
  -1.15999999999999992006e+00
  -1.16999999999999992895e+00
  -1.17999999999999993783e+00
  -1.18999999999999994671e+00
  -1.19999999999999995559e+00
  -1.20999999999999996447e+00
  -1.21999999999999997335e+00
  -1.22999999999999998224e+00
  -1.23999999999999999112e+00
  -1.25000000000000000000e+00
  -1.26000000000000000888e+00
  -1.27000000000000001776e+00
  -1.28000000000000002665e+00
  -1.29000000000000003553e+00
  -1.30000000000000004441e+00
</indep>
<indep Vgs 3>
  -1.00000000000000000000e+00
  -6.99999999999999955591e-01
  -4.00000000000000022204e-01
</indep>
<dep V2.I Vds Vgs>
  +0.00000000000000000000e+00
  +1.16611400329463683044e-06
  +2.32319412926398907661e-06
  +3.47099865308063285432e-06
  +4.60914805935084062605e-06
  +5.73726685149216619882e-06
  +6.85506242936692344767e-06
  +7.96230925127498308160e-06
  +9.05880688918911311785e-06
  +1.01443575118540255732e-05
  +1.12187619808042355447e-05
  +1.22818216578825320783e-05
  +1.33333397218876256051e-05
  +1.43731212490498588754e-05
  +1.54009727002743997972e-05
  +1.64167012964896404440e-05
  +1.74201144701100258294e-05
  +1.84110194338498239981e-05
  +1.93892228593862900332e-05
  +2.03545306482495358023e-05
  +2.13067477785907800230e-05
  +2.22456782150685696009e-05
  +2.31711248725363619838e-05
  +2.40828896270232570027e-05
  +2.49807733696817116289e-05
  +2.58645761010429506071e-05
  +2.67340970641880725693e-05
  +2.75891349164058565478e-05
  +2.84294879396396596492e-05
  +2.92549542905847875752e-05
  +3.00653322917231775478e-05
  +3.08604207649079139786e-05
  +3.16400194093558384187e-05
  +3.24039292260885393188e-05
  +3.31519529909941645983e-05
  +3.38838957787697715187e-05
  +3.45995655400523955845e-05
  +3.52987737340620499459e-05
  +3.59813360190619876055e-05
  +3.66470730028905131398e-05
  +3.72958110557411372937e-05
  +3.79273831872564931404e-05
  +3.85416299898611706162e-05
  +3.91384006500915032547e-05
  +3.97175540294766193537e-05
  +4.02789598163026050766e-05
  +4.08224997493298599272e-05
  +4.13480689142550240922e-05
  +4.18555771133950551568e-05
  +4.23449503087410954226e-05
  +4.28161321381704325795e-05
  +4.32690855042254331523e-05
  +4.37037942344682439925e-05
  +4.41202648119859086530e-05
  +4.45185281741645707057e-05
  +4.48986415773377546285e-05
  +4.52606905243433161224e-05
  +4.56047907513421513399e-05
  +4.59310902694203679526e-05
  +4.62397714554278280326e-05
  +4.65310531850809109460e-05
  +4.68051929994103138588e-05
  +4.70624892929101480612e-05
  +4.73032835078940656231e-05
  +4.75279623140573457630e-05
  +4.77369597443227976566e-05
  +4.79307592465633760257e-05
  +4.81098955939832480721e-05
  +4.82749565721293129989e-05
  +4.84265843236854053055e-05
  +4.85654761779459170088e-05
  +4.86923847146702776147e-05
  +4.88081167117406655590e-05
  +4.89135305214408554870e-05
  +4.90095313679565235446e-05
  +4.90970641474708241751e-05
  +4.91771035661793618626e-05
  +4.92506416924265894323e-05
  +4.93186730326444384693e-05
  +4.93821773558609367202e-05
  +4.94421011321767350701e-05
  +4.94993392871686269325e-05
  +4.95547193093142336801e-05
  +4.96089894246662111961e-05
  +4.96628118242610204513e-05
  +4.97167610669559060913e-05
  +4.97713270111232802210e-05
  +4.98269211263572915833e-05
  +4.98838848670786136341e-05
  +4.99424989021147471523e-05
  +5.00029922702409289847e-05
  +5.00655508526378256913e-05
  +5.01303248386486516959e-05
  +5.01974350749762095333e-05
  +5.02669783270925246439e-05
  +5.03390315582884535100e-05
  +5.04136553645427652574e-05
  +5.04908967085539400841e-05
  +5.05707910862551564203e-05
  +5.06533642421538380361e-05
  +5.07386335309480265366e-05
  +5.08266090047558631538e-05
  +5.09172942892546819341e-05
  +5.10106872984563217014e-05
  +5.11067808267285191752e-05
  +5.12055630477433799431e-05
  +5.13070179429793660425e-05
  +5.14111256768808551408e-05
  +5.15178629315008409129e-05
  +5.16272032101578603894e-05
  +5.17391171171131271887e-05
  +5.18535726183552453817e-05
  +5.19705352871304495114e-05
  +5.20899685367641452315e-05
  +5.22118338425130683452e-05
  +5.23360909535909875193e-05
  +5.24626980960829481220e-05
  +5.25916121671590850069e-05
  +5.27227889207928303609e-05
  +5.28561831450523770073e-05
  +5.29917488309570894637e-05
  +5.31294393328488268264e-05
  +5.32692075202181872175e-05
  +5.34110059209390666563e-05
  +5.35547868558837903297e-05
  +5.37005025649322468174e-05
  +5.38481053244207921553e-05
  +5.39975475561214207382e-05
  +5.41487819278806906814e-05
  +5.43017614460882371355e-05
  +5.44564395401795573728e-05
  +0.00000000000000000000e+00
  +8.86128169735852444683e-07
  +1.75892420483425559431e-06
  +2.61805793653043305806e-06
  +3.46298727918390084990e-06
  +4.29317873056122239041e-06
  +5.10822953583862080141e-06
  +5.90784282552219943601e-06
  +6.69176259657353731969e-06
  +7.45973907710307639274e-06
  +8.21152301631282337052e-06
  +8.94686882521084062459e-06
  +9.66553696064105768494e-06
  +1.03672944160317483873e-05
  +1.10519143276870335035e-05
  +1.17191754516206620747e-05
  +1.23688618111642709493e-05
  +1.30007625887130809600e-05
  +1.36146722599175964237e-05
  +1.42103909532496604576e-05
  +1.47877250200949037049e-05
  +1.53464878063469874366e-05
  +1.58865006221143843811e-05
  +1.64075939108369163813e-05
  +1.69096086228512545579e-05
  +1.73923978013964398829e-05
  +1.78558283913711693803e-05
  +1.82997832829676909130e-05
  +1.87241636036918518730e-05
  +1.91288912732853289087e-05
  +1.95139118366922671146e-05
  +1.98791975904217200404e-05
  +2.02247510173586688776e-05
  +2.05506085441041103936e-05
  +2.08568446330206747584e-05
  +2.11435762179361356355e-05
  +2.14109674872868857966e-05
  +2.16592350104741586934e-05
  +2.18886531909208781137e-05
  +2.20995600105659007199e-05
  +2.22923630017760949400e-05
  +2.24675453381465413199e-05
  +2.26256718659686024671e-05
  +2.27673947884765619709e-05
  +2.28934585450372263911e-05
  +2.30047031801881347477e-05
  +2.31020651924246974568e-05
  +2.31865746143565759716e-05
  +2.32593471550797027008e-05
  +2.33215707230709036793e-05
  +2.33744860145236297048e-05
  +2.34193607451298916407e-05
  +2.34574577976687744288e-05
  +2.34899998480173936789e-05
  +2.35181350993280301653e-05
  +2.35429090090709494968e-05
  +2.35652455532004728885e-05
  +2.35859393973954960602e-05
  +2.36056581047041974183e-05
  +2.36249519096733893954e-05
  +2.36442679850677229831e-05
  +2.36639663961210761631e-05
  +2.36843356831089025237e-05
  +2.37056068465129048551e-05
  +2.37279651956718628592e-05
  +2.37515599852883746478e-05
  +2.37765120248476450454e-05
  +2.38029195602355067140e-05
  +2.38308627510449360059e-05
  +2.38604070438800796184e-05
  +2.38916056988406202771e-05
  +2.39245016788522182351e-05
  +2.39591290672950854817e-05
  +2.39955141415424809837e-05
  +2.40336761991632068605e-05
  +2.40736282091233300541e-05
  +2.41153773413820773257e-05
  +2.41589254137673430458e-05
  +2.42042692840128880675e-05
  +2.42514012065495964223e-05
  +2.43003091674372409374e-05
  +2.43509772062180737001e-05
  +2.44033857300777039527e-05
  +2.44575118232392201500e-05
  +2.45133295527613217298e-05
  +2.45708102706991897651e-05
  +2.46299229117897676596e-05
  +2.46906342853353235516e-05
  +2.47529093597123440811e-05
  +2.48167115378569624515e-05
  +2.48820029221300095725e-05
  +2.49487445671081526407e-05
  +2.50168967190437380177e-05
  +2.50864190409708815463e-05
  +2.51572708226854477830e-05
  +2.52294111750752518845e-05
  +2.53027992085209937705e-05
  +2.53773941953117764404e-05
  +2.54531557162231749378e-05
  +2.55300437915838992716e-05
  +2.56080189973101636221e-05
  +2.56870425665097718644e-05
  +2.57670764773617519655e-05
  +2.58480835280470317968e-05
  +2.59300273995655680204e-05
  +2.60128727072999002697e-05
  +2.60965850422091111488e-05
  +2.61811310025291562567e-05
  +2.62664782168484201388e-05
  +2.63525953594015297302e-05
  +2.64394521583926592374e-05
  +2.65270193981231752582e-05
  +2.66152689156544760467e-05
  +2.67041735926908171820e-05
  +2.67937073433217046647e-05
  +2.68838450982108221699e-05
  +2.69745627857743694238e-05
  +2.70658373108418966895e-05
  +2.71576465312469805639e-05
  +2.72499692327517385347e-05
  +2.73427851026671702957e-05
  +2.74360747024912762695e-05
  +2.75298194398513216218e-05
  +2.76240015400009200890e-05
  +2.77186040170926506856e-05
  +2.78136106454173656882e-05
  +2.79090059307743177763e-05
  +2.80047750821140216176e-05
  +2.81009039835728444742e-05
  +2.81973791669990012793e-05
  +2.82941877850534343635e-05
  +0.00000000000000000000e+00
  +4.66035428017305830652e-07
  +9.13860852485660447658e-07
  +1.34318980725266726833e-06
  +1.75345669382305148650e-06
  +2.14413326005980676297e-06
  +2.51490116959843444758e-06
  +2.86561660594882145243e-06
  +3.19622069769785011962e-06
  +3.50669462951453876585e-06
  +3.79705620279247362469e-06
  +4.06736929948068010965e-06
  +4.31775292396997214579e-06
  +4.54838841760768447335e-06
  +4.75952636056912549488e-06
  +4.95149424529616012316e-06
  +5.12470528784570442723e-06
  +5.27966829102083097091e-06
  +5.41699812716112986889e-06
  +5.53742598212566425683e-06
  +5.64180791398744066196e-06
  +5.73112966156040291003e-06
  +5.80650543984605223952e-06
  +5.86916894371643842269e-06
  +5.92045488781080009874e-06
  +5.96176852565422908160e-06
  +5.99454194460060274703e-06
  +6.02018104694401953172e-06
  +6.04001165468507676356e-06
  +6.05523409053869840154e-06
  +6.06689327660071751712e-06
  +6.07586706558732331934e-06
  +6.08287095205939766176e-06
  +6.08847431066429025553e-06
  +6.09312256608894445476e-06
  +6.09716065782053156136e-06
  +6.10085479690314573650e-06
  +6.10441103695887196060e-06
  +6.10799026020979019495e-06
  +6.11171979547956230230e-06
  +6.11570215916391659856e-06
  +6.12002147694302320666e-06
  +6.12474810588011329287e-06
  +6.12994189709751827113e-06
  +6.13565445246778317967e-06
  +6.14193065015788484652e-06
  +6.14880964863867190203e-06
  +6.15632552715636968460e-06
  +6.16450768086258524324e-06
  +6.17338105846769406030e-06
  +6.18296630720955996835e-06
  +6.19327987228189627024e-06
  +6.20433408424047224539e-06
  +6.21613725727257564982e-06
  +6.22869381286081266025e-06
  +6.24200443679995243488e-06
  +6.25606627240938008793e-06
  +6.27087314888611840278e-06
  +6.28641584090191426034e-06
  +6.30268235361728930248e-06
  +6.31965822614193869578e-06
  +6.33732684599006224286e-06
  +6.35566976713579219563e-06
  +6.37466702474617414351e-06
  +6.39429744044235697588e-06
  +6.41453891290003504991e-06
  +6.43536868965862366560e-06
  +6.45676361708434521801e-06
  +6.47870036646031175929e-06
  +6.50115563511861913948e-06
  +6.52410632234880794733e-06
  +6.54752968050506423017e-06
  +6.57140344228266578002e-06
  +6.59570592554906074545e-06
  +6.62041611740783544101e-06
  +6.64551373935641295364e-06
  +6.67097929549069901793e-06
  +6.69679410572536184176e-06
  +6.72294032595671534405e-06
  +6.74940095700734133798e-06
  +6.77615984407374104015e-06
  +6.80320166826123517946e-06
  +6.83051193163997516099e-06
  +6.85807693710467814905e-06
  +6.88588376416900888516e-06
  +6.91392024168167521606e-06
  +6.94217491831426284667e-06
  +6.97063703154602029235e-06
  +6.99929647575568645174e-06
  +7.02814376992869745879e-06
  +7.05717002539718895650e-06
  +7.08636691394980617914e-06
  +7.11572663657997443590e-06
  +7.14524189308112715573e-06
  +7.17490585264736796989e-06
  +7.20471212559405180530e-06
  +7.23465473627812207902e-06
  +7.26472809726742761965e-06
  +7.29492698478450399594e-06
  +7.32524651542993109630e-06
  +7.35568212417547695258e-06
  +7.38622954360330919148e-06
  +7.41688478436016682848e-06
  +7.44764411678604065201e-06
  +7.47850405367296496581e-06
  +7.50946133410565929334e-06
  +7.54051290833325143028e-06
  +7.57165592362064238162e-06
  +7.60288771102733680038e-06
  +7.63420577306222661968e-06
  +7.66560777216354994679e-06
  +7.69709151995503368057e-06
  +7.72865496723007873480e-06
  +7.76029619461868939241e-06
  +7.79201340389295284649e-06
  +7.82380490986976336650e-06
  +7.85566913287083654560e-06
  +7.88760459170313550843e-06
  +7.91960989712383723433e-06
  +7.95168374575731123650e-06
  +7.98382491443253490299e-06
  +8.01603225491190243390e-06
  +8.04830468898416816030e-06
  +8.08064120389590319251e-06
  +8.11304084809792296377e-06
  +8.14550272728392928232e-06
  +8.17802600070144975906e-06
  +8.21060987771496604874e-06
  +8.24325361460440035979e-06
  +8.27595651158087946783e-06
  +8.30871791000602041746e-06
</dep>
<dep V1.I Vds Vgs>
  +0.00000000000000000000e+00
  +0.00000000000000000000e+00
  +0.00000000000000000000e+00
  +0.00000000000000000000e+00
  +0.00000000000000000000e+00
  +0.00000000000000000000e+00
  +0.00000000000000000000e+00
  +0.00000000000000000000e+00
  +0.00000000000000000000e+00
  +0.00000000000000000000e+00
  +0.00000000000000000000e+00
  +0.00000000000000000000e+00
  +0.00000000000000000000e+00
  +0.00000000000000000000e+00
  +0.00000000000000000000e+00
  +0.00000000000000000000e+00
  +0.00000000000000000000e+00
  +0.00000000000000000000e+00
  +0.00000000000000000000e+00
  +0.00000000000000000000e+00
  +0.00000000000000000000e+00
  +0.00000000000000000000e+00
  +0.00000000000000000000e+00
  +0.00000000000000000000e+00
  +0.00000000000000000000e+00
  +0.00000000000000000000e+00
  +0.00000000000000000000e+00
  +0.00000000000000000000e+00
  +0.00000000000000000000e+00
  +0.00000000000000000000e+00
  +0.00000000000000000000e+00
  +0.00000000000000000000e+00
  +0.00000000000000000000e+00
  +0.00000000000000000000e+00
  +0.00000000000000000000e+00
  +0.00000000000000000000e+00
  +0.00000000000000000000e+00
  +0.00000000000000000000e+00
  +0.00000000000000000000e+00
  +0.00000000000000000000e+00
  +0.00000000000000000000e+00
  +0.00000000000000000000e+00
  +0.00000000000000000000e+00
  +0.00000000000000000000e+00
  +0.00000000000000000000e+00
  +0.00000000000000000000e+00
  +0.00000000000000000000e+00
  +0.00000000000000000000e+00
  +0.00000000000000000000e+00
  +0.00000000000000000000e+00
  +0.00000000000000000000e+00
  +0.00000000000000000000e+00
  +0.00000000000000000000e+00
  +0.00000000000000000000e+00
  +0.00000000000000000000e+00
  +0.00000000000000000000e+00
  +0.00000000000000000000e+00
  +0.00000000000000000000e+00
  +0.00000000000000000000e+00
  +0.00000000000000000000e+00
  +0.00000000000000000000e+00
  +0.00000000000000000000e+00
  +0.00000000000000000000e+00
  +0.00000000000000000000e+00
  +0.00000000000000000000e+00
  +0.00000000000000000000e+00
  +0.00000000000000000000e+00
  +0.00000000000000000000e+00
  +0.00000000000000000000e+00
  +0.00000000000000000000e+00
  +0.00000000000000000000e+00
  +0.00000000000000000000e+00
  +0.00000000000000000000e+00
  +0.00000000000000000000e+00
  +0.00000000000000000000e+00
  +0.00000000000000000000e+00
  +0.00000000000000000000e+00
  +0.00000000000000000000e+00
  +0.00000000000000000000e+00
  +0.00000000000000000000e+00
  +0.00000000000000000000e+00
  +0.00000000000000000000e+00
  +0.00000000000000000000e+00
  +0.00000000000000000000e+00
  +0.00000000000000000000e+00
  +0.00000000000000000000e+00
  +0.00000000000000000000e+00
  +0.00000000000000000000e+00
  +0.00000000000000000000e+00
  +0.00000000000000000000e+00
  +0.00000000000000000000e+00
  +0.00000000000000000000e+00
  +0.00000000000000000000e+00
  +0.00000000000000000000e+00
  +0.00000000000000000000e+00
  +0.00000000000000000000e+00
  +0.00000000000000000000e+00
  +0.00000000000000000000e+00
  +0.00000000000000000000e+00
  +0.00000000000000000000e+00
  +0.00000000000000000000e+00
  +0.00000000000000000000e+00
  +0.00000000000000000000e+00
  +0.00000000000000000000e+00
  +0.00000000000000000000e+00
  +0.00000000000000000000e+00
  +0.00000000000000000000e+00
  +0.00000000000000000000e+00
  +0.00000000000000000000e+00
  +0.00000000000000000000e+00
  +0.00000000000000000000e+00
  +0.00000000000000000000e+00
  +0.00000000000000000000e+00
  +0.00000000000000000000e+00
  +0.00000000000000000000e+00
  +0.00000000000000000000e+00
  +0.00000000000000000000e+00
  +0.00000000000000000000e+00
  +0.00000000000000000000e+00
  +0.00000000000000000000e+00
  +0.00000000000000000000e+00
  +0.00000000000000000000e+00
  +0.00000000000000000000e+00
  +0.00000000000000000000e+00
  +0.00000000000000000000e+00
  +0.00000000000000000000e+00
  +0.00000000000000000000e+00
  +0.00000000000000000000e+00
  +0.00000000000000000000e+00
  +0.00000000000000000000e+00
  +0.00000000000000000000e+00
  +0.00000000000000000000e+00
  +0.00000000000000000000e+00
  +0.00000000000000000000e+00
  +0.00000000000000000000e+00
