<Qucs Dataset 0.0.18>
<indep v 131>
  +0.00000000000e+00
  +1.00000000000e-02
  +2.00000000000e-02
  +3.00000000000e-02
  +4.00000000000e-02
  +5.00000000000e-02
  +6.00000000000e-02
  +7.00000000000e-02
  +8.00000000000e-02
  +9.00000000000e-02
  +1.00000000000e-01
  +1.10000000000e-01
  +1.20000000000e-01
  +1.30000000000e-01
  +1.40000000000e-01
  +1.50000000000e-01
  +1.60000000000e-01
  +1.70000000000e-01
  +1.80000000000e-01
  +1.90000000000e-01
  +2.00000000000e-01
  +2.10000000000e-01
  +2.20000000000e-01
  +2.30000000000e-01
  +2.40000000000e-01
  +2.50000000000e-01
  +2.60000000000e-01
  +2.70000000000e-01
  +2.80000000000e-01
  +2.90000000000e-01
  +3.00000000000e-01
  +3.10000000000e-01
  +3.20000000000e-01
  +3.30000000000e-01
  +3.40000000000e-01
  +3.50000000000e-01
  +3.60000000000e-01
  +3.70000000000e-01
  +3.80000000000e-01
  +3.90000000000e-01
  +4.00000000000e-01
  +4.10000000000e-01
  +4.20000000000e-01
  +4.30000000000e-01
  +4.40000000000e-01
  +4.50000000000e-01
  +4.60000000000e-01
  +4.70000000000e-01
  +4.80000000000e-01
  +4.90000000000e-01
  +5.00000000000e-01
  +5.10000000000e-01
  +5.20000000000e-01
  +5.30000000000e-01
  +5.40000000000e-01
  +5.50000000000e-01
  +5.60000000000e-01
  +5.70000000000e-01
  +5.80000000000e-01
  +5.90000000000e-01
  +6.00000000000e-01
  +6.10000000000e-01
  +6.20000000000e-01
  +6.30000000000e-01
  +6.40000000000e-01
  +6.50000000000e-01
  +6.60000000000e-01
  +6.70000000000e-01
  +6.80000000000e-01
  +6.90000000000e-01
  +7.00000000000e-01
  +7.10000000000e-01
  +7.20000000000e-01
  +7.30000000000e-01
  +7.40000000000e-01
  +7.50000000000e-01
  +7.60000000000e-01
  +7.70000000000e-01
  +7.80000000000e-01
  +7.90000000000e-01
  +8.00000000000e-01
  +8.10000000000e-01
  +8.20000000000e-01
  +8.30000000000e-01
  +8.40000000000e-01
  +8.50000000000e-01
  +8.60000000000e-01
  +8.70000000000e-01
  +8.80000000000e-01
  +8.90000000000e-01
  +9.00000000000e-01
  +9.10000000000e-01
  +9.20000000000e-01
  +9.30000000000e-01
  +9.40000000000e-01
  +9.50000000000e-01
  +9.60000000000e-01
  +9.70000000000e-01
  +9.80000000000e-01
  +9.90000000000e-01
  +1.00000000000e+00
  +1.01000000000e+00
  +1.02000000000e+00
  +1.03000000000e+00
  +1.04000000000e+00
  +1.05000000000e+00
  +1.06000000000e+00
  +1.07000000000e+00
  +1.08000000000e+00
  +1.09000000000e+00
  +1.10000000000e+00
  +1.11000000000e+00
  +1.12000000000e+00
  +1.13000000000e+00
  +1.14000000000e+00
  +1.15000000000e+00
  +1.16000000000e+00
  +1.17000000000e+00
  +1.18000000000e+00
  +1.19000000000e+00
  +1.20000000000e+00
  +1.21000000000e+00
  +1.22000000000e+00
  +1.23000000000e+00
  +1.24000000000e+00
  +1.25000000000e+00
  +1.26000000000e+00
  +1.27000000000e+00
  +1.28000000000e+00
  +1.29000000000e+00
  +1.30000000000e+00
</indep>
<dep gd v>
  +0.00000000000e+00
  -1.92300000000e-03
  +2.72500000000e-04
  +2.68200000000e-04
  +2.63700000000e-04
  +2.59200000000e-04
  +2.54500000000e-04
  +2.49800000000e-04
  +2.45100000000e-04
  +2.40200000000e-04
  +2.35300000000e-04
  +2.30300000000e-04
  +2.25200000000e-04
  +2.20100000000e-04
  +2.14900000000e-04
  +2.09700000000e-04
  +2.04300000000e-04
  +1.99000000000e-04
  +1.93500000000e-04
  +1.88000000000e-04
  +1.82400000000e-04
  +1.76800000000e-04
  +1.71100000000e-04
  +1.65300000000e-04
  +1.59500000000e-04
  +1.53600000000e-04
  +1.47700000000e-04
  +1.41700000000e-04
  +1.35700000000e-04
  +1.29600000000e-04
  +1.23400000000e-04
  +1.17300000000e-04
  +1.11100000000e-04
  +1.04900000000e-04
  +9.87100000000e-05
  +9.25500000000e-05
  +8.64400000000e-05
  +8.03900000000e-05
  +7.44500000000e-05
  +6.86300000000e-05
  +6.29700000000e-05
  +5.75100000000e-05
  +5.22600000000e-05
  +4.72700000000e-05
  +4.25600000000e-05
  +3.81500000000e-05
  +3.40700000000e-05
  +3.03200000000e-05
  +2.69200000000e-05
  +2.38700000000e-05
  +2.11500000000e-05
  +1.87500000000e-05
  +1.66600000000e-05
  +1.48600000000e-05
  +1.33200000000e-05
  +1.20200000000e-05
  +1.09200000000e-05
  +9.99900000000e-06
  +9.23800000000e-06
  +8.61200000000e-06
  +8.09800000000e-06
  +7.68000000000e-06
  +7.34000000000e-06
  +7.06500000000e-06
  +6.84400000000e-06
  +6.66600000000e-06
  +6.52400000000e-06
  +6.41000000000e-06
  +6.32000000000e-06
  +6.24800000000e-06
  +6.19100000000e-06
  +6.14600000000e-06
  +6.11100000000e-06
  +6.08300000000e-06
  +6.06100000000e-06
  +6.04400000000e-06
  +6.03100000000e-06
  +6.02100000000e-06
  +6.01300000000e-06
  +6.00700000000e-06
  +6.00200000000e-06
  +5.99800000000e-06
  +5.99500000000e-06
  +5.99300000000e-06
  +5.99200000000e-06
  +5.99000000000e-06
  +5.98900000000e-06
  +5.98800000000e-06
  +5.98800000000e-06
  +5.98700000000e-06
  +5.98600000000e-06
  +5.98600000000e-06
  +5.98500000000e-06
  +5.98500000000e-06
  +5.98400000000e-06
  +5.98300000000e-06
  +5.98300000000e-06
  +5.98200000000e-06
  +5.98100000000e-06
  +5.98000000000e-06
  +5.97900000000e-06
  +5.97800000000e-06
  +5.97700000000e-06
  +5.97700000000e-06
  +5.97500000000e-06
  +5.97400000000e-06
  +5.97300000000e-06
  +5.97200000000e-06
  +5.97100000000e-06
  +5.97000000000e-06
  +5.96900000000e-06
  +5.96700000000e-06
  +5.96600000000e-06
  +5.96500000000e-06
  +5.96400000000e-06
  +5.96300000000e-06
  +5.96100000000e-06
  +5.96000000000e-06
  +5.95900000000e-06
  +5.95700000000e-06
  +5.95600000000e-06
  +5.95500000000e-06
  +5.95400000000e-06
  +5.95200000000e-06
  +5.95100000000e-06
  +5.95000000000e-06
  +5.94800000000e-06
  +5.94700000000e-06
  +5.94600000000e-06
  +5.94400000000e-06
  +5.94300000000e-06
</dep>
<dep ids v>
  +0.00000000000e+00
  +2.72500000000e-06
  +5.40700000000e-06
  +8.04400000000e-06
  +1.06400000000e-05
  +1.31800000000e-05
  +1.56800000000e-05
  +1.81300000000e-05
  +2.05300000000e-05
  +2.28800000000e-05
  +2.51900000000e-05
  +2.74400000000e-05
  +2.96400000000e-05
  +3.17900000000e-05
  +3.38900000000e-05
  +3.59300000000e-05
  +3.79200000000e-05
  +3.98500000000e-05
  +4.17300000000e-05
  +4.35600000000e-05
  +4.53300000000e-05
  +4.70400000000e-05
  +4.86900000000e-05
  +5.02900000000e-05
  +5.18200000000e-05
  +5.33000000000e-05
  +5.47200000000e-05
  +5.60700000000e-05
  +5.73700000000e-05
  +5.86000000000e-05
  +5.97800000000e-05
  +6.08900000000e-05
  +6.19400000000e-05
  +6.29200000000e-05
  +6.38500000000e-05
  +6.47100000000e-05
  +6.55200000000e-05
  +6.62600000000e-05
  +6.69500000000e-05
  +6.75800000000e-05
  +6.81500000000e-05
  +6.86800000000e-05
  +6.91500000000e-05
  +6.95700000000e-05
  +6.99600000000e-05
  +7.03000000000e-05
  +7.06000000000e-05
  +7.08700000000e-05
  +7.11100000000e-05
  +7.13200000000e-05
  +7.15100000000e-05
  +7.16700000000e-05
  +7.18200000000e-05
  +7.19500000000e-05
  +7.20700000000e-05
  +7.21800000000e-05
  +7.22800000000e-05
  +7.23800000000e-05
  +7.24600000000e-05
  +7.25400000000e-05
  +7.26200000000e-05
  +7.26900000000e-05
  +7.27600000000e-05
  +7.28300000000e-05
  +7.29000000000e-05
  +7.29600000000e-05
  +7.30300000000e-05
  +7.30900000000e-05
  +7.31500000000e-05
  +7.32200000000e-05
  +7.32800000000e-05
  +7.33400000000e-05
  +7.34000000000e-05
  +7.34600000000e-05
  +7.35200000000e-05
  +7.35800000000e-05
  +7.36400000000e-05
  +7.37000000000e-05
  +7.37600000000e-05
  +7.38200000000e-05
  +7.38800000000e-05
  +7.39400000000e-05
  +7.40000000000e-05
  +7.40600000000e-05
  +7.41200000000e-05
  +7.41800000000e-05
  +7.42400000000e-05
  +7.43000000000e-05
  +7.43600000000e-05
  +7.44200000000e-05
  +7.44800000000e-05
  +7.45400000000e-05
  +7.46000000000e-05
  +7.46600000000e-05
  +7.47200000000e-05
  +7.47800000000e-05
  +7.48400000000e-05
  +7.49000000000e-05
  +7.49600000000e-05
  +7.50200000000e-05
  +7.50800000000e-05
  +7.51400000000e-05
  +7.52000000000e-05
  +7.52600000000e-05
  +7.53200000000e-05
  +7.53800000000e-05
  +7.54400000000e-05
  +7.55000000000e-05
  +7.55600000000e-05
  +7.56200000000e-05
  +7.56800000000e-05
  +7.57400000000e-05
  +7.58000000000e-05
  +7.58500000000e-05
  +7.59100000000e-05
  +7.59700000000e-05
  +7.60300000000e-05
  +7.60900000000e-05
  +7.61500000000e-05
  +7.62100000000e-05
  +7.62700000000e-05
  +7.63300000000e-05
  +7.63900000000e-05
  +7.64500000000e-05
  +7.65100000000e-05
  +7.65700000000e-05
  +7.66300000000e-05
  +7.66900000000e-05
  +7.67500000000e-05
  +7.68100000000e-05
  +7.68700000000e-05
</dep>
