<Qucs Dataset 0.0.18>
<indep v 131>
  +0.00000000000e+00
  +1.00000000000e-02
  +2.00000000000e-02
  +3.00000000000e-02
  +4.00000000000e-02
  +5.00000000000e-02
  +6.00000000000e-02
  +7.00000000000e-02
  +8.00000000000e-02
  +9.00000000000e-02
  +1.00000000000e-01
  +1.10000000000e-01
  +1.20000000000e-01
  +1.30000000000e-01
  +1.40000000000e-01
  +1.50000000000e-01
  +1.60000000000e-01
  +1.70000000000e-01
  +1.80000000000e-01
  +1.90000000000e-01
  +2.00000000000e-01
  +2.10000000000e-01
  +2.20000000000e-01
  +2.30000000000e-01
  +2.40000000000e-01
  +2.50000000000e-01
  +2.60000000000e-01
  +2.70000000000e-01
  +2.80000000000e-01
  +2.90000000000e-01
  +3.00000000000e-01
  +3.10000000000e-01
  +3.20000000000e-01
  +3.30000000000e-01
  +3.40000000000e-01
  +3.50000000000e-01
  +3.60000000000e-01
  +3.70000000000e-01
  +3.80000000000e-01
  +3.90000000000e-01
  +4.00000000000e-01
  +4.10000000000e-01
  +4.20000000000e-01
  +4.30000000000e-01
  +4.40000000000e-01
  +4.50000000000e-01
  +4.60000000000e-01
  +4.70000000000e-01
  +4.80000000000e-01
  +4.90000000000e-01
  +5.00000000000e-01
  +5.10000000000e-01
  +5.20000000000e-01
  +5.30000000000e-01
  +5.40000000000e-01
  +5.50000000000e-01
  +5.60000000000e-01
  +5.70000000000e-01
  +5.80000000000e-01
  +5.90000000000e-01
  +6.00000000000e-01
  +6.10000000000e-01
  +6.20000000000e-01
  +6.30000000000e-01
  +6.40000000000e-01
  +6.50000000000e-01
  +6.60000000000e-01
  +6.70000000000e-01
  +6.80000000000e-01
  +6.90000000000e-01
  +7.00000000000e-01
  +7.10000000000e-01
  +7.20000000000e-01
  +7.30000000000e-01
  +7.40000000000e-01
  +7.50000000000e-01
  +7.60000000000e-01
  +7.70000000000e-01
  +7.80000000000e-01
  +7.90000000000e-01
  +8.00000000000e-01
  +8.10000000000e-01
  +8.20000000000e-01
  +8.30000000000e-01
  +8.40000000000e-01
  +8.50000000000e-01
  +8.60000000000e-01
  +8.70000000000e-01
  +8.80000000000e-01
  +8.90000000000e-01
  +9.00000000000e-01
  +9.10000000000e-01
  +9.20000000000e-01
  +9.30000000000e-01
  +9.40000000000e-01
  +9.50000000000e-01
  +9.60000000000e-01
  +9.70000000000e-01
  +9.80000000000e-01
  +9.90000000000e-01
  +1.00000000000e+00
  +1.01000000000e+00
  +1.02000000000e+00
  +1.03000000000e+00
  +1.04000000000e+00
  +1.05000000000e+00
  +1.06000000000e+00
  +1.07000000000e+00
  +1.08000000000e+00
  +1.09000000000e+00
  +1.10000000000e+00
  +1.11000000000e+00
  +1.12000000000e+00
  +1.13000000000e+00
  +1.14000000000e+00
  +1.15000000000e+00
  +1.16000000000e+00
  +1.17000000000e+00
  +1.18000000000e+00
  +1.19000000000e+00
  +1.20000000000e+00
  +1.21000000000e+00
  +1.22000000000e+00
  +1.23000000000e+00
  +1.24000000000e+00
  +1.25000000000e+00
  +1.26000000000e+00
  +1.27000000000e+00
  +1.28000000000e+00
  +1.29000000000e+00
  +1.30000000000e+00
</indep>
<dep gd v>
  +0.00000000000e+00
  +0.00000000000e+00
  +1.33100000000e-04
  +1.27200000000e-04
  +1.21200000000e-04
  +1.15100000000e-04
  +1.09100000000e-04
  +1.03100000000e-04
  +9.70700000000e-05
  +9.10700000000e-05
  +8.51000000000e-05
  +7.91800000000e-05
  +7.33000000000e-05
  +6.74900000000e-05
  +6.17600000000e-05
  +5.61200000000e-05
  +5.06100000000e-05
  +4.52300000000e-05
  +4.00300000000e-05
  +3.50400000000e-05
  +3.03100000000e-05
  +2.58800000000e-05
  +2.18000000000e-05
  +1.81100000000e-05
  +1.48500000000e-05
  +1.20500000000e-05
  +9.69800000000e-06
  +7.78800000000e-06
  +6.28000000000e-06
  +5.12600000000e-06
  +4.26900000000e-06
  +3.65300000000e-06
  +3.22400000000e-06
  +2.93600000000e-06
  +2.75100000000e-06
  +2.63900000000e-06
  +2.57800000000e-06
  +2.55000000000e-06
  +2.54300000000e-06
  +2.55000000000e-06
  +2.56400000000e-06
  +2.58100000000e-06
  +2.60000000000e-06
  +2.61800000000e-06
  +2.63600000000e-06
  +2.65100000000e-06
  +2.66500000000e-06
  +2.67800000000e-06
  +2.68900000000e-06
  +2.69800000000e-06
  +2.70600000000e-06
  +2.71300000000e-06
  +2.71900000000e-06
  +2.72300000000e-06
  +2.72800000000e-06
  +2.73100000000e-06
  +2.73400000000e-06
  +2.73600000000e-06
  +2.73800000000e-06
  +2.74000000000e-06
  +2.74100000000e-06
  +2.74200000000e-06
  +2.74300000000e-06
  +2.74400000000e-06
  +2.74400000000e-06
  +2.74400000000e-06
  +2.74500000000e-06
  +2.74500000000e-06
  +2.74500000000e-06
  +2.74500000000e-06
  +2.74500000000e-06
  +2.74500000000e-06
  +2.74400000000e-06
  +2.74400000000e-06
  +2.74400000000e-06
  +2.74400000000e-06
  +2.74400000000e-06
  +2.74300000000e-06
  +2.74300000000e-06
  +2.74300000000e-06
  +2.74200000000e-06
  +2.74200000000e-06
  +2.74200000000e-06
  +2.74100000000e-06
  +2.74100000000e-06
  +2.74000000000e-06
  +2.74000000000e-06
  +2.74000000000e-06
  +2.73900000000e-06
  +2.73900000000e-06
  +2.73900000000e-06
  +2.73800000000e-06
  +2.73800000000e-06
  +2.73800000000e-06
  +2.73700000000e-06
  +2.73700000000e-06
  +2.73700000000e-06
  +2.73600000000e-06
  +2.73600000000e-06
  +2.73600000000e-06
  +2.73500000000e-06
  +2.73500000000e-06
  +2.73500000000e-06
  +2.73400000000e-06
  +2.73400000000e-06
  +2.73400000000e-06
  +2.73400000000e-06
  +2.73300000000e-06
  +2.73300000000e-06
  +2.73300000000e-06
  +2.73300000000e-06
  +2.73200000000e-06
  +2.73200000000e-06
  +2.73200000000e-06
  +2.73200000000e-06
  +2.73100000000e-06
  +2.73100000000e-06
  +2.73100000000e-06
  +2.73100000000e-06
  +2.73100000000e-06
  +2.73000000000e-06
  +2.73000000000e-06
  +2.73000000000e-06
  +2.73000000000e-06
  +2.73000000000e-06
  +2.73000000000e-06
  +2.72900000000e-06
  +2.72900000000e-06
  +2.72900000000e-06
  +2.72900000000e-06
  +2.72900000000e-06
</dep>
<dep ids v>
  +0.00000000000e+00
  +1.33100000000e-06
  +2.60300000000e-06
  +3.81400000000e-06
  +4.96600000000e-06
  +6.05700000000e-06
  +7.08800000000e-06
  +8.05900000000e-06
  +8.96900000000e-06
  +9.82000000000e-06
  +1.06100000000e-05
  +1.13500000000e-05
  +1.20200000000e-05
  +1.26400000000e-05
  +1.32000000000e-05
  +1.37000000000e-05
  +1.41600000000e-05
  +1.45600000000e-05
  +1.49100000000e-05
  +1.52100000000e-05
  +1.54700000000e-05
  +1.56900000000e-05
  +1.58700000000e-05
  +1.60200000000e-05
  +1.61400000000e-05
  +1.62300000000e-05
  +1.63100000000e-05
  +1.63800000000e-05
  +1.64300000000e-05
  +1.64700000000e-05
  +1.65100000000e-05
  +1.65400000000e-05
  +1.65700000000e-05
  +1.66000000000e-05
  +1.66200000000e-05
  +1.66500000000e-05
  +1.66700000000e-05
  +1.67000000000e-05
  +1.67200000000e-05
  +1.67500000000e-05
  +1.67800000000e-05
  +1.68000000000e-05
  +1.68300000000e-05
  +1.68500000000e-05
  +1.68800000000e-05
  +1.69100000000e-05
  +1.69300000000e-05
  +1.69600000000e-05
  +1.69900000000e-05
  +1.70100000000e-05
  +1.70400000000e-05
  +1.70700000000e-05
  +1.71000000000e-05
  +1.71200000000e-05
  +1.71500000000e-05
  +1.71800000000e-05
  +1.72100000000e-05
  +1.72300000000e-05
  +1.72600000000e-05
  +1.72900000000e-05
  +1.73200000000e-05
  +1.73400000000e-05
  +1.73700000000e-05
  +1.74000000000e-05
  +1.74200000000e-05
  +1.74500000000e-05
  +1.74800000000e-05
  +1.75100000000e-05
  +1.75300000000e-05
  +1.75600000000e-05
  +1.75900000000e-05
  +1.76200000000e-05
  +1.76400000000e-05
  +1.76700000000e-05
  +1.77000000000e-05
  +1.77300000000e-05
  +1.77500000000e-05
  +1.77800000000e-05
  +1.78100000000e-05
  +1.78400000000e-05
  +1.78600000000e-05
  +1.78900000000e-05
  +1.79200000000e-05
  +1.79500000000e-05
  +1.79700000000e-05
  +1.80000000000e-05
  +1.80300000000e-05
  +1.80600000000e-05
  +1.80800000000e-05
  +1.81100000000e-05
  +1.81400000000e-05
  +1.81700000000e-05
  +1.81900000000e-05
  +1.82200000000e-05
  +1.82500000000e-05
  +1.82700000000e-05
  +1.83000000000e-05
  +1.83300000000e-05
  +1.83600000000e-05
  +1.83800000000e-05
  +1.84100000000e-05
  +1.84400000000e-05
  +1.84700000000e-05
  +1.84900000000e-05
  +1.85200000000e-05
  +1.85500000000e-05
  +1.85800000000e-05
  +1.86000000000e-05
  +1.86300000000e-05
  +1.86600000000e-05
  +1.86800000000e-05
  +1.87100000000e-05
  +1.87400000000e-05
  +1.87700000000e-05
  +1.87900000000e-05
  +1.88200000000e-05
  +1.88500000000e-05
  +1.88800000000e-05
  +1.89000000000e-05
  +1.89300000000e-05
  +1.89600000000e-05
  +1.89900000000e-05
  +1.90100000000e-05
  +1.90400000000e-05
  +1.90700000000e-05
  +1.90900000000e-05
  +1.91200000000e-05
  +1.91500000000e-05
  +1.91800000000e-05
  +1.92000000000e-05
  +1.92300000000e-05
</dep>
