<Qucs Dataset 0.0.18>
<indep v 131>
  +0.00000000000e+00
  +1.00000000000e-02
  +2.00000000000e-02
  +3.00000000000e-02
  +4.00000000000e-02
  +5.00000000000e-02
  +6.00000000000e-02
  +7.00000000000e-02
  +8.00000000000e-02
  +9.00000000000e-02
  +1.00000000000e-01
  +1.10000000000e-01
  +1.20000000000e-01
  +1.30000000000e-01
  +1.40000000000e-01
  +1.50000000000e-01
  +1.60000000000e-01
  +1.70000000000e-01
  +1.80000000000e-01
  +1.90000000000e-01
  +2.00000000000e-01
  +2.10000000000e-01
  +2.20000000000e-01
  +2.30000000000e-01
  +2.40000000000e-01
  +2.50000000000e-01
  +2.60000000000e-01
  +2.70000000000e-01
  +2.80000000000e-01
  +2.90000000000e-01
  +3.00000000000e-01
  +3.10000000000e-01
  +3.20000000000e-01
  +3.30000000000e-01
  +3.40000000000e-01
  +3.50000000000e-01
  +3.60000000000e-01
  +3.70000000000e-01
  +3.80000000000e-01
  +3.90000000000e-01
  +4.00000000000e-01
  +4.10000000000e-01
  +4.20000000000e-01
  +4.30000000000e-01
  +4.40000000000e-01
  +4.50000000000e-01
  +4.60000000000e-01
  +4.70000000000e-01
  +4.80000000000e-01
  +4.90000000000e-01
  +5.00000000000e-01
  +5.10000000000e-01
  +5.20000000000e-01
  +5.30000000000e-01
  +5.40000000000e-01
  +5.50000000000e-01
  +5.60000000000e-01
  +5.70000000000e-01
  +5.80000000000e-01
  +5.90000000000e-01
  +6.00000000000e-01
  +6.10000000000e-01
  +6.20000000000e-01
  +6.30000000000e-01
  +6.40000000000e-01
  +6.50000000000e-01
  +6.60000000000e-01
  +6.70000000000e-01
  +6.80000000000e-01
  +6.90000000000e-01
  +7.00000000000e-01
  +7.10000000000e-01
  +7.20000000000e-01
  +7.30000000000e-01
  +7.40000000000e-01
  +7.50000000000e-01
  +7.60000000000e-01
  +7.70000000000e-01
  +7.80000000000e-01
  +7.90000000000e-01
  +8.00000000000e-01
  +8.10000000000e-01
  +8.20000000000e-01
  +8.30000000000e-01
  +8.40000000000e-01
  +8.50000000000e-01
  +8.60000000000e-01
  +8.70000000000e-01
  +8.80000000000e-01
  +8.90000000000e-01
  +9.00000000000e-01
  +9.10000000000e-01
  +9.20000000000e-01
  +9.30000000000e-01
  +9.40000000000e-01
  +9.50000000000e-01
  +9.60000000000e-01
  +9.70000000000e-01
  +9.80000000000e-01
  +9.90000000000e-01
  +1.00000000000e+00
  +1.01000000000e+00
  +1.02000000000e+00
  +1.03000000000e+00
  +1.04000000000e+00
  +1.05000000000e+00
  +1.06000000000e+00
  +1.07000000000e+00
  +1.08000000000e+00
  +1.09000000000e+00
  +1.10000000000e+00
  +1.11000000000e+00
  +1.12000000000e+00
  +1.13000000000e+00
  +1.14000000000e+00
  +1.15000000000e+00
  +1.16000000000e+00
  +1.17000000000e+00
  +1.18000000000e+00
  +1.19000000000e+00
  +1.20000000000e+00
  +1.21000000000e+00
  +1.22000000000e+00
  +1.23000000000e+00
  +1.24000000000e+00
  +1.25000000000e+00
  +1.26000000000e+00
  +1.27000000000e+00
  +1.28000000000e+00
  +1.29000000000e+00
  +1.30000000000e+00
</indep>
<dep gd v>
  +0.00000000000e+00
  -7.68700000000e-03
  +3.56400000000e-04
  +3.53900000000e-04
  +3.51400000000e-04
  +3.48700000000e-04
  +3.46000000000e-04
  +3.43200000000e-04
  +3.40400000000e-04
  +3.37500000000e-04
  +3.34500000000e-04
  +3.31500000000e-04
  +3.28300000000e-04
  +3.25200000000e-04
  +3.21900000000e-04
  +3.18600000000e-04
  +3.15200000000e-04
  +3.11800000000e-04
  +3.08300000000e-04
  +3.04700000000e-04
  +3.01100000000e-04
  +2.97300000000e-04
  +2.93600000000e-04
  +2.89700000000e-04
  +2.85800000000e-04
  +2.81800000000e-04
  +2.77700000000e-04
  +2.73600000000e-04
  +2.69400000000e-04
  +2.65100000000e-04
  +2.60700000000e-04
  +2.56300000000e-04
  +2.51700000000e-04
  +2.47100000000e-04
  +2.42500000000e-04
  +2.37700000000e-04
  +2.32900000000e-04
  +2.28000000000e-04
  +2.23000000000e-04
  +2.17900000000e-04
  +2.12700000000e-04
  +2.07500000000e-04
  +2.02100000000e-04
  +1.96700000000e-04
  +1.91200000000e-04
  +1.85700000000e-04
  +1.80100000000e-04
  +1.74400000000e-04
  +1.68600000000e-04
  +1.62800000000e-04
  +1.56900000000e-04
  +1.51000000000e-04
  +1.45100000000e-04
  +1.39200000000e-04
  +1.33200000000e-04
  +1.27300000000e-04
  +1.21400000000e-04
  +1.15500000000e-04
  +1.09600000000e-04
  +1.03900000000e-04
  +9.81900000000e-05
  +9.26100000000e-05
  +8.71500000000e-05
  +8.18300000000e-05
  +7.66700000000e-05
  +7.16700000000e-05
  +6.68600000000e-05
  +6.22500000000e-05
  +5.78500000000e-05
  +5.36700000000e-05
  +4.97100000000e-05
  +4.59900000000e-05
  +4.25000000000e-05
  +3.92500000000e-05
  +3.62300000000e-05
  +3.34400000000e-05
  +3.08800000000e-05
  +2.85300000000e-05
  +2.63900000000e-05
  +2.44400000000e-05
  +2.26900000000e-05
  +2.11000000000e-05
  +1.96800000000e-05
  +1.84100000000e-05
  +1.72800000000e-05
  +1.62800000000e-05
  +1.53800000000e-05
  +1.46000000000e-05
  +1.39000000000e-05
  +1.32900000000e-05
  +1.27500000000e-05
  +1.22800000000e-05
  +1.18700000000e-05
  +1.15100000000e-05
  +1.12000000000e-05
  +1.09200000000e-05
  +1.06800000000e-05
  +1.04700000000e-05
  +1.02900000000e-05
  +1.01300000000e-05
  +9.99500000000e-06
  +9.87400000000e-06
  +9.76900000000e-06
  +9.67800000000e-06
  +9.59800000000e-06
  +9.52800000000e-06
  +9.46700000000e-06
  +9.41400000000e-06
  +9.36700000000e-06
  +9.32600000000e-06
  +9.29000000000e-06
  +9.25900000000e-06
  +9.23100000000e-06
  +9.20600000000e-06
  +9.18500000000e-06
  +9.16500000000e-06
  +9.14800000000e-06
  +9.13300000000e-06
  +9.11900000000e-06
  +9.10700000000e-06
  +9.09600000000e-06
  +9.08600000000e-06
  +9.07700000000e-06
  +9.06900000000e-06
  +9.06200000000e-06
  +9.05500000000e-06
  +9.04800000000e-06
  +9.04300000000e-06
  +9.03700000000e-06
  +9.03200000000e-06
  +9.02700000000e-06
</dep>
<dep ids v>
  +0.00000000000e+00
  +3.56400000000e-06
  +7.10400000000e-06
  +1.06200000000e-05
  +1.41000000000e-05
  +1.75600000000e-05
  +2.10000000000e-05
  +2.44000000000e-05
  +2.77800000000e-05
  +3.11200000000e-05
  +3.44300000000e-05
  +3.77200000000e-05
  +4.09700000000e-05
  +4.41900000000e-05
  +4.73800000000e-05
  +5.05300000000e-05
  +5.36500000000e-05
  +5.67300000000e-05
  +5.97700000000e-05
  +6.27900000000e-05
  +6.57600000000e-05
  +6.86900000000e-05
  +7.15900000000e-05
  +7.44500000000e-05
  +7.72700000000e-05
  +8.00400000000e-05
  +8.27800000000e-05
  +8.54700000000e-05
  +8.81200000000e-05
  +9.07300000000e-05
  +9.32900000000e-05
  +9.58100000000e-05
  +9.82800000000e-05
  +1.00700000000e-04
  +1.03100000000e-04
  +1.05400000000e-04
  +1.07700000000e-04
  +1.09900000000e-04
  +1.12100000000e-04
  +1.14200000000e-04
  +1.16300000000e-04
  +1.18300000000e-04
  +1.20300000000e-04
  +1.22200000000e-04
  +1.24100000000e-04
  +1.25900000000e-04
  +1.27600000000e-04
  +1.29300000000e-04
  +1.30900000000e-04
  +1.32500000000e-04
  +1.34000000000e-04
  +1.35400000000e-04
  +1.36800000000e-04
  +1.38200000000e-04
  +1.39400000000e-04
  +1.40700000000e-04
  +1.41800000000e-04
  +1.42900000000e-04
  +1.43900000000e-04
  +1.44900000000e-04
  +1.45900000000e-04
  +1.46700000000e-04
  +1.47500000000e-04
  +1.48300000000e-04
  +1.49000000000e-04
  +1.49700000000e-04
  +1.50300000000e-04
  +1.50900000000e-04
  +1.51400000000e-04
  +1.51900000000e-04
  +1.52400000000e-04
  +1.52800000000e-04
  +1.53200000000e-04
  +1.53600000000e-04
  +1.53900000000e-04
  +1.54200000000e-04
  +1.54500000000e-04
  +1.54800000000e-04
  +1.55000000000e-04
  +1.55200000000e-04
  +1.55400000000e-04
  +1.55600000000e-04
  +1.55800000000e-04
  +1.56000000000e-04
  +1.56200000000e-04
  +1.56300000000e-04
  +1.56500000000e-04
  +1.56600000000e-04
  +1.56700000000e-04
  +1.56900000000e-04
  +1.57000000000e-04
  +1.57100000000e-04
  +1.57200000000e-04
  +1.57300000000e-04
  +1.57400000000e-04
  +1.57500000000e-04
  +1.57700000000e-04
  +1.57800000000e-04
  +1.57900000000e-04
  +1.58000000000e-04
  +1.58100000000e-04
  +1.58200000000e-04
  +1.58300000000e-04
  +1.58300000000e-04
  +1.58400000000e-04
  +1.58500000000e-04
  +1.58600000000e-04
  +1.58700000000e-04
  +1.58800000000e-04
  +1.58900000000e-04
  +1.59000000000e-04
  +1.59100000000e-04
  +1.59200000000e-04
  +1.59300000000e-04
  +1.59400000000e-04
  +1.59500000000e-04
  +1.59600000000e-04
  +1.59600000000e-04
  +1.59700000000e-04
  +1.59800000000e-04
  +1.59900000000e-04
  +1.60000000000e-04
  +1.60100000000e-04
  +1.60200000000e-04
  +1.60300000000e-04
  +1.60400000000e-04
  +1.60500000000e-04
  +1.60600000000e-04
  +1.60600000000e-04
  +1.60700000000e-04
  +1.60800000000e-04
</dep>
