<Qucs Dataset 0.0.19>
<indep Vds 131>
  +0.00000000000000000000e+00
  +1.00000000000000002082e-02
  +2.00000000000000004163e-02
  +2.99999999999999988898e-02
  +4.00000000000000008327e-02
  +5.00000000000000027756e-02
  +5.99999999999999977796e-02
  +7.00000000000000066613e-02
  +8.00000000000000016653e-02
  +8.99999999999999966693e-02
  +1.00000000000000005551e-01
  +1.10000000000000000555e-01
  +1.19999999999999995559e-01
  +1.30000000000000004441e-01
  +1.40000000000000013323e-01
  +1.49999999999999994449e-01
  +1.60000000000000003331e-01
  +1.70000000000000012212e-01
  +1.79999999999999993339e-01
  +1.90000000000000002220e-01
  +2.00000000000000011102e-01
  +2.09999999999999992228e-01
  +2.20000000000000001110e-01
  +2.30000000000000009992e-01
  +2.39999999999999991118e-01
  +2.50000000000000000000e-01
  +2.60000000000000008882e-01
  +2.70000000000000017764e-01
  +2.80000000000000026645e-01
  +2.89999999999999980016e-01
  +2.99999999999999988898e-01
  +3.09999999999999997780e-01
  +3.20000000000000006661e-01
  +3.30000000000000015543e-01
  +3.40000000000000024425e-01
  +3.50000000000000033307e-01
  +3.59999999999999986677e-01
  +3.69999999999999995559e-01
  +3.80000000000000004441e-01
  +3.90000000000000013323e-01
  +4.00000000000000022204e-01
  +4.10000000000000031086e-01
  +4.19999999999999984457e-01
  +4.29999999999999993339e-01
  +4.40000000000000002220e-01
  +4.50000000000000011102e-01
  +4.60000000000000019984e-01
  +4.70000000000000028866e-01
  +4.79999999999999982236e-01
  +4.89999999999999991118e-01
  +5.00000000000000000000e-01
  +5.10000000000000008882e-01
  +5.20000000000000017764e-01
  +5.30000000000000026645e-01
  +5.40000000000000035527e-01
  +5.50000000000000044409e-01
  +5.60000000000000053291e-01
  +5.70000000000000062172e-01
  +5.79999999999999960032e-01
  +5.89999999999999968914e-01
  +5.99999999999999977796e-01
  +6.09999999999999986677e-01
  +6.19999999999999995559e-01
  +6.30000000000000004441e-01
  +6.40000000000000013323e-01
  +6.50000000000000022204e-01
  +6.60000000000000031086e-01
  +6.70000000000000039968e-01
  +6.80000000000000048850e-01
  +6.90000000000000057732e-01
  +7.00000000000000066613e-01
  +7.09999999999999964473e-01
  +7.19999999999999973355e-01
  +7.29999999999999982236e-01
  +7.39999999999999991118e-01
  +7.50000000000000000000e-01
  +7.60000000000000008882e-01
  +7.70000000000000017764e-01
  +7.80000000000000026645e-01
  +7.90000000000000035527e-01
  +8.00000000000000044409e-01
  +8.10000000000000053291e-01
  +8.20000000000000062172e-01
  +8.30000000000000071054e-01
  +8.39999999999999968914e-01
  +8.49999999999999977796e-01
  +8.59999999999999986677e-01
  +8.69999999999999995559e-01
  +8.80000000000000004441e-01
  +8.90000000000000013323e-01
  +9.00000000000000022204e-01
  +9.10000000000000031086e-01
  +9.20000000000000039968e-01
  +9.30000000000000048850e-01
  +9.40000000000000057732e-01
  +9.50000000000000066613e-01
  +9.59999999999999964473e-01
  +9.69999999999999973355e-01
  +9.79999999999999982236e-01
  +9.89999999999999991118e-01
  +1.00000000000000000000e+00
  +1.01000000000000000888e+00
  +1.02000000000000001776e+00
  +1.03000000000000002665e+00
  +1.04000000000000003553e+00
  +1.05000000000000004441e+00
  +1.06000000000000005329e+00
  +1.07000000000000006217e+00
  +1.08000000000000007105e+00
  +1.09000000000000007994e+00
  +1.10000000000000008882e+00
  +1.11000000000000009770e+00
  +1.12000000000000010658e+00
  +1.13000000000000011546e+00
  +1.14000000000000012434e+00
  +1.15000000000000013323e+00
  +1.15999999999999992006e+00
  +1.16999999999999992895e+00
  +1.17999999999999993783e+00
  +1.18999999999999994671e+00
  +1.19999999999999995559e+00
  +1.20999999999999996447e+00
  +1.21999999999999997335e+00
  +1.22999999999999998224e+00
  +1.23999999999999999112e+00
  +1.25000000000000000000e+00
  +1.26000000000000000888e+00
  +1.27000000000000001776e+00
  +1.28000000000000002665e+00
  +1.29000000000000003553e+00
  +1.30000000000000004441e+00
</indep>
<indep Vgs 3>
  +4.00000000000000022204e-01
  +6.99999999999999955591e-01
  +1.00000000000000000000e+00
</indep>
<dep V2.I Vds Vgs>
  +0.00000000000000000000e+00
  -1.33127828158447703770e-06
  -2.60284541364111815328e-06
  -3.81442944475550377041e-06
  -4.96584312992711231303e-06
  -6.05698678195227086055e-06
  -7.08785626027691675622e-06
  -8.05854695397663870089e-06
  -8.96925594082096432698e-06
  -9.82028400713064289788e-06
  -1.06120391799512477820e-05
  -1.13450434905884064822e-05
  -1.20199447791690049002e-05
  -1.26375353970175726461e-05
  -1.31987795481242890414e-05
  -1.37048505631067729367e-05
  -1.41571784013169568240e-05
  -1.45575058792013030997e-05
  -1.49079493104527411890e-05
  -1.52110554299134639780e-05
  -1.54698423174476880153e-05
  -1.56878093380298500297e-05
  -1.58689023321363792960e-05
  -1.60174258856952191630e-05
  -1.61379021368746515357e-05
  -1.62348861116638937296e-05
  -1.63127627446149817809e-05
  -1.63755613553573683538e-05
  -1.64268193166132672896e-05
  -1.64695108534875071804e-05
  -1.65060389686906849882e-05
  -1.65382758653266012129e-05
  -1.65676325622411627222e-05
  -1.65951401352905849739e-05
  -1.66215298983762179937e-05
  -1.66473050850967408700e-05
  -1.66728007697081707797e-05
  -1.66982315297670840264e-05
  -1.67237279037397881636e-05
  -1.67493633888210873288e-05
  -1.67751738813030069116e-05
  -1.68011713259693794709e-05
  -1.68273530736010363163e-05
  -1.68537081447039301129e-05
  -1.68802213159464899672e-05
  -1.69068757069815693442e-05
  -1.69336543552420276855e-05
  -1.69605411216588476946e-05
  -1.69875211638204922206e-05
  -1.70145811368364440613e-05
  -1.70417092286580529597e-05
  -1.70688950997424441472e-05
  -1.70961297719199559089e-05
  -1.71234054945860003183e-05
  -1.71507156052991454936e-05
  -1.71780543946884745857e-05
  -1.72054169809904693189e-05
  -1.72327991966734670425e-05
  -1.72601974878624830683e-05
  -1.72876088262715857824e-05
  -1.73150306327973574003e-05
  -1.73424607116723348047e-05
  -1.73698971939899720902e-05
  -1.73973384894336017040e-05
  -1.74247832451176703594e-05
  -1.74522303105483034898e-05
  -1.74796787078233715692e-05
  -1.75071276063026169581e-05
  -1.75345763010792104054e-05
  -1.75620241946810407918e-05
  -1.75894707815101303532e-05
  -1.76169156346042754329e-05
  -1.76443583943660533913e-05
  -1.76717987589596644930e-05
  -1.76992364761214141856e-05
  -1.77266713361702140587e-05
  -1.77541031660350576659e-05
  -1.77815318241487162827e-05
  -1.78089571960759206518e-05
  -1.78363791907678490521e-05
  -1.78637977373499242534e-05
  -1.78912127823649381130e-05
  -1.79186242874037682856e-05
  -1.79460322270685926338e-05
  -1.79734365872209235493e-05
  -1.80008373634717785006e-05
  -1.80282345598818300489e-05
  -1.80556281878402086639e-05
  -1.80830182650979330995e-05
  -1.81104048149336134337e-05
  -1.81377878654335848718e-05
  -1.81651674488705955270e-05
  -1.81925436011672686466e-05
  -1.82199163614336836093e-05
  -1.82472857715677288398e-05
  -1.82746518759107524227e-05
  -1.83020147209512801419e-05
  -1.83293743550688490005e-05
  -1.83567308283153609119e-05
  -1.83840841922258487634e-05
  -1.84114344996568422006e-05
  -1.84387818046489551671e-05
  -1.84661261623085757298e-05
  -1.84934676287080720458e-05
  -1.85208062608012618622e-05
  -1.85481421163525565159e-05
  -1.85754752538766284707e-05
  -1.86028057325901982025e-05
  -1.86301336123708175755e-05
  -1.86574589537244521975e-05
  -1.86847818177591319189e-05
  -1.87121022661650963806e-05
  -1.87394203611990639179e-05
  -1.87667361656737012468e-05
  -1.87940497429504812827e-05
  -1.88213611569360815556e-05
  -1.88486704720811475426e-05
  -1.88759777533823119942e-05
  -1.89032830663849325445e-05
  -1.89305864771901254735e-05
  -1.89578880524599698769e-05
  -1.89851878594272485451e-05
  -1.90124859659039352337e-05
  -1.90397824402921789862e-05
  -1.90670773515954748050e-05
  -1.90943707694301731349e-05
  -1.91216627640381040421e-05
  -1.91489534062993572473e-05
  -1.91762427677452959400e-05
  -1.92035309205723024291e-05
  -1.92308179376551714279e-05
  +0.00000000000000000000e+00
  -2.72538308363517637847e-06
  -5.40699187375098928133e-06
  -8.04398744435803845772e-06
  -1.06355466575072188043e-05
  -1.31808667240572224486e-05
  -1.56791680090459626014e-05
  -1.81296945061694036365e-05
  -2.05317127359456246222e-05
  -2.28845097538129654260e-05
  -2.51873907765035577274e-05
  -2.74396767365446976042e-05
  -2.96407019182526074532e-05
  -3.17898117326697251411e-05
  -3.38863606453743436203e-05
  -3.59297102638829807448e-05
  -3.79192276060638322152e-05
  -3.98542835975587345413e-05
  -4.17342518785854434257e-05
  -4.35585080352976670927e-05
  -4.53264294062440416104e-05
  -4.70373956492089353282e-05
  -4.86907902867474636790e-05
  -5.02860034787044182986e-05
  -5.18224362950580442295e-05
  -5.32995067799865319806e-05
  -5.47166581046822770012e-05
  -5.60733690977808729391e-05
  -5.73691674130301406255e-05
  -5.86036455379424311594e-05
  -5.97764797581364076958e-05
  -6.08874520636556285677e-05
  -6.19364748106854772327e-05
  -6.29236177324540499334e-05
  -6.38491366288009698634e-05
  -6.47135027636591979479e-05
  -6.55174316808680430417e-05
  -6.62619098389196264963e-05
  -6.69482172025959257908e-05
  -6.75779437610512357217e-05
  -6.81529979192862481359e-05
  -6.86756048814846651110e-05
  -6.91482935450690668110e-05
  -6.95738710628495689954e-05
  -6.99553850806443366147e-05
  -7.02960746512091975199e-05
  -7.05993118554047602515e-05
  -7.08685370954495631865e-05
  -7.11071917250330346252e-05
  -7.13186520289850142164e-05
  -7.15061684854829330941e-05
  -7.16728137200790170686e-05
  -7.18214416477363967175e-05
  -7.19546591276178922969e-05
  -7.20748102207289837069e-05
  -7.21839720563350928416e-05
  -7.22839605390823675786e-05
  -7.23763437188564229480e-05
  -7.24624605575114921806e-05
  -7.25434429751796222476e-05
  -7.26202393576117399745e-05
  -7.26936380813421751659e-05
  -7.27642900050439286235e-05
  -7.28327292377767553403e-05
  -7.28993917997849928073e-05
  -7.29646320275331483661e-05
  -7.30287367430422441807e-05
  -7.30919373171867931601e-05
  -7.31544198195695005238e-05
  -7.32163334761817661970e-05
  -7.32777976611003080539e-05
  -7.33389076385797678958e-05
  -7.33997392535327579160e-05
  -7.34603527460315672802e-05
  -7.35207958421302346921e-05
  -7.35811062507851738413e-05
  -7.36413136760036643068e-05
  -7.37014414350158243846e-05
  -7.37615077573844515153e-05
  -7.38215268264660884334e-05
  -7.38815096132806718460e-05
  -7.39414645434435368471e-05
  -7.40013980300385874195e-05
  -7.40613148989738208925e-05
  -7.41212187281829358240e-05
  -7.41811121178467586159e-05
  -7.42409969054214069744e-05
  -7.43008743365305480456e-05
  -7.43607452005797642898e-05
  -7.44206099381883849240e-05
  -7.44804687261200700811e-05
  -7.45403215442551580735e-05
  -7.46001682282446592969e-05
  -7.46600085107540522612e-05
  -7.47198420536211130490e-05
  -7.47796684727937443528e-05
  -7.48394873575313043703e-05
  -7.48992982850608382192e-05
  -7.49591008316380271858e-05
  -7.50188945807706589154e-05
  -7.50786791292136013523e-05
  -7.51384540912154735718e-05
  -7.51982191014033147375e-05
  -7.52579738166125818436e-05
  -7.53177179169055408155e-05
  -7.53774511059710254027e-05
  -7.54371731110582059796e-05
  -7.54968836825677911155e-05
  -7.55565825933924125257e-05
  -7.56162696380819384766e-05
  -7.56759446318917611187e-05
  -7.57356074097609494912e-05
  -7.57952578252490673195e-05
  -7.58548957494659299456e-05
  -7.59145210700057251722e-05
  -7.59741336899082933716e-05
  -7.60337335266492744769e-05
  -7.60933205111744226596e-05
  -7.61528945869767740981e-05
  -7.62124557092247586956e-05
  -7.62720038439364988103e-05
  -7.63315389672065156088e-05
  -7.63910610644809805712e-05
  -7.64505701298806989970e-05
  -7.65100661655703076286e-05
  -7.65695491811732662640e-05
  -7.66290191932267615625e-05
  -7.66884762246795859131e-05
  -7.67479203044249547183e-05
  -7.68073514668714198324e-05
  -7.68667697515445065776e-05
  +0.00000000000000000000e+00
  -3.56432678657057058750e-06
  -7.10362818987086732097e-06
  -1.06172134951128748718e-05
  -1.41043925505204241212e-05
  -1.75644788388056797678e-05
  -2.09967910991315563716e-05
  -2.44006536511081242977e-05
  -2.77753958205969656817e-05
  -3.11203508762186034447e-05
  -3.44348547910102071885e-05
  -3.77182450239287389441e-05
  -4.09698594158699243989e-05
  -4.41890352281531243123e-05
  -4.73751083143445942758e-05
  -5.05274123998317921413e-05
  -5.36452784393561516829e-05
  -5.67280340248288829710e-05
  -5.97750028206417739220e-05
  -6.27855040094137020323e-05
  -6.57588517368040410653e-05
  -6.86943545493380391476e-05
  -7.15913148240587219467e-05
  -7.44490281933202284166e-05
  -7.72667829722597154438e-05
  -8.00438596005291502517e-05
  -8.27795301138298418586e-05
  -8.54730576647253707367e-05
  -8.81236961161701421417e-05
  -9.07306897351977965221e-05
  -9.32932730182577980719e-05
  -9.58106706837861019739e-05
  -9.82820978716505543743e-05
  -1.00706760593119879692e-04
  -1.03083856478823222684e-04
  -1.05412575875692740004e-04
  -1.07692103346976455558e-04
  -1.09921619631830132409e-04
  -1.12100304122566838739e-04
  -1.14227337918048742899e-04
  -1.16301907510636242651e-04
  -1.18323209161232291561e-04
  -1.20290454011860281202e-04
  -1.22202873977491418157e-04
  -1.24059728448092305205e-04
  -1.25860311817688631103e-04
  -1.27603961839280373187e-04
  -1.29290068782482209415e-04
  -1.30918085344637440126e-04
  -1.32487537235969883662e-04
  -1.33998034325406964636e-04
  -1.35449282196671463678e-04
  -1.36841093925075494306e-04
  -1.38173401845589715166e-04
  -1.39446269043999148806e-04
  -1.40659900267528341095e-04
  -1.41814651921821682692e-04
  -1.42911040800399857104e-04
  -1.43949751183587785737e-04
  -1.44931639949201566649e-04
  -1.45857739359283970770e-04
  -1.46729257227610858632e-04
  -1.47547574232077539609e-04
  -1.48314238213870859973e-04
  -1.49030955399356824197e-04
  -1.49699578587259962258e-04
  -1.50322092457874108675e-04
  -1.50900596276442265902e-04
  -1.51437284372394590122e-04
  -1.51934424872597037591e-04
  -1.52394337243312192817e-04
  -1.52819369246535232158e-04
  -1.53211873937849165674e-04
  -1.53574187323133232218e-04
  -1.53908607251151318069e-04
  -1.54217374051177406012e-04
  -1.54502653334665927994e-04
  -1.54766521274088620285e-04
  -1.55010952558079501259e-04
  -1.55237811107499976658e-04
  -1.55448843529007392538e-04
  -1.55645675187002653205e-04
  -1.55829808695664620956e-04
  -1.56002624572710473557e-04
  -1.56165383756351206770e-04
  -1.56319231665954058068e-04
  -1.56465203483401163248e-04
  -1.56604230343283746998e-04
  -1.56737146142830178390e-04
  -1.56864694713402359153e-04
  -1.56987537131400941475e-04
  -1.57106258984457777166e-04
  -1.57221377446524181393e-04
  -1.57333348050932021441e-04
  -1.57442571082420056366e-04
  -1.57549397536766084583e-04
  -1.57654134619694967674e-04
  -1.57757050775274759767e-04
  -1.57858380248374459637e-04
  -1.57958327196422145195e-04
  -1.58057069373179640091e-04
  -1.58154761412174904708e-04
  -1.58251537740202016715e-04
  -1.58347515152514783021e-04
  -1.58442795081288471167e-04
  -1.58537465588020248840e-04
  -1.58631603109027786297e-04
  -1.58725273981304002740e-04
  -1.58818535773878682319e-04
  -1.58911438447630276941e-04
  -1.59004025364299606763e-04
  -1.59096334163333027502e-04
  -1.59188397523160433955e-04
  -1.59280243821648668547e-04
  -1.59371897708740245959e-04
  -1.59463380602727273529e-04
  -1.59554711120203884496e-04
  -1.59645905448465723385e-04
  -1.59736977668026671785e-04
  -1.59827940031915507937e-04
  -1.59918803207547181259e-04
  -1.60009576486210079293e-04
  -1.60100267964518401444e-04
  -1.60190884701624862126e-04
  -1.60281432855451235831e-04
  -1.60371917800777624881e-04
  -1.60462344231629958947e-04
  -1.60552716250087862361e-04
  -1.60643037443336435949e-04
  -1.60733310950542747277e-04
  -1.60823539520927975832e-04
</dep>
<dep Ids.I Vds Vgs>
  +0.00000000000000000000e+00
  +1.33127828158447703770e-06
  +2.60284541364111815328e-06
  +3.81442944475550377041e-06
  +4.96584312992711231303e-06
  +6.05698678195227086055e-06
  +7.08785626027691675622e-06
  +8.05854695397663870089e-06
  +8.96925594082096432698e-06
  +9.82028400713064289788e-06
  +1.06120391799512477820e-05
  +1.13450434905884064822e-05
  +1.20199447791690049002e-05
  +1.26375353970175726461e-05
  +1.31987795481242890414e-05
  +1.37048505631067729367e-05
  +1.41571784013169568240e-05
  +1.45575058792013030997e-05
  +1.49079493104527411890e-05
  +1.52110554299134639780e-05
  +1.54698423174476880153e-05
  +1.56878093380298500297e-05
  +1.58689023321363792960e-05
  +1.60174258856952191630e-05
  +1.61379021368746515357e-05
  +1.62348861116638937296e-05
  +1.63127627446149817809e-05
  +1.63755613553573683538e-05
  +1.64268193166132672896e-05
  +1.64695108534875071804e-05
  +1.65060389686906849882e-05
  +1.65382758653266012129e-05
  +1.65676325622411627222e-05
  +1.65951401352905849739e-05
  +1.66215298983762179937e-05
  +1.66473050850967408700e-05
  +1.66728007697081707797e-05
  +1.66982315297670840264e-05
  +1.67237279037397881636e-05
  +1.67493633888210873288e-05
  +1.67751738813030069116e-05
  +1.68011713259693794709e-05
  +1.68273530736010363163e-05
  +1.68537081447039301129e-05
  +1.68802213159464899672e-05
  +1.69068757069815693442e-05
  +1.69336543552420276855e-05
  +1.69605411216588476946e-05
  +1.69875211638204922206e-05
  +1.70145811368364440613e-05
  +1.70417092286580529597e-05
  +1.70688950997424441472e-05
  +1.70961297719199559089e-05
  +1.71234054945860003183e-05
  +1.71507156052991454936e-05
  +1.71780543946884745857e-05
  +1.72054169809904693189e-05
  +1.72327991966734670425e-05
  +1.72601974878624830683e-05
  +1.72876088262715857824e-05
  +1.73150306327973574003e-05
  +1.73424607116723348047e-05
  +1.73698971939899720902e-05
  +1.73973384894336017040e-05
  +1.74247832451176703594e-05
  +1.74522303105483034898e-05
  +1.74796787078233715692e-05
  +1.75071276063026169581e-05
  +1.75345763010792104054e-05
  +1.75620241946810407918e-05
  +1.75894707815101303532e-05
  +1.76169156346042754329e-05
  +1.76443583943660533913e-05
  +1.76717987589596644930e-05
  +1.76992364761214141856e-05
  +1.77266713361702140587e-05
  +1.77541031660350576659e-05
  +1.77815318241487162827e-05
  +1.78089571960759206518e-05
  +1.78363791907678490521e-05
  +1.78637977373499242534e-05
  +1.78912127823649381130e-05
  +1.79186242874037682856e-05
  +1.79460322270685926338e-05
  +1.79734365872209235493e-05
  +1.80008373634717785006e-05
  +1.80282345598818300489e-05
  +1.80556281878402086639e-05
  +1.80830182650979330995e-05
  +1.81104048149336134337e-05
  +1.81377878654335848718e-05
  +1.81651674488705955270e-05
  +1.81925436011672686466e-05
  +1.82199163614336836093e-05
  +1.82472857715677288398e-05
  +1.82746518759107524227e-05
  +1.83020147209512801419e-05
  +1.83293743550688490005e-05
  +1.83567308283153609119e-05
  +1.83840841922258487634e-05
  +1.84114344996568422006e-05
  +1.84387818046489551671e-05
  +1.84661261623085757298e-05
  +1.84934676287080720458e-05
  +1.85208062608012618622e-05
  +1.85481421163525565159e-05
  +1.85754752538766284707e-05
  +1.86028057325901982025e-05
  +1.86301336123708175755e-05
  +1.86574589537244521975e-05
  +1.86847818177591319189e-05
  +1.87121022661650963806e-05
  +1.87394203611990639179e-05
  +1.87667361656737012468e-05
  +1.87940497429504812827e-05
  +1.88213611569360815556e-05
  +1.88486704720811475426e-05
  +1.88759777533823119942e-05
  +1.89032830663849325445e-05
  +1.89305864771901254735e-05
  +1.89578880524599698769e-05
  +1.89851878594272485451e-05
  +1.90124859659039352337e-05
  +1.90397824402921789862e-05
  +1.90670773515954748050e-05
  +1.90943707694301731349e-05
  +1.91216627640381040421e-05
  +1.91489534062993572473e-05
  +1.91762427677452959400e-05
  +1.92035309205723024291e-05
  +1.92308179376551714279e-05
  +0.00000000000000000000e+00
  +2.72538308363517637847e-06
  +5.40699187375098928133e-06
  +8.04398744435803845772e-06
