<Qucs Dataset 0.0.18>
<indep v 261>
  -1.30000000000e+00
  -1.29000000000e+00
  -1.28000000000e+00
  -1.27000000000e+00
  -1.26000000000e+00
  -1.25000000000e+00
  -1.24000000000e+00
  -1.23000000000e+00
  -1.22000000000e+00
  -1.21000000000e+00
  -1.20000000000e+00
  -1.19000000000e+00
  -1.18000000000e+00
  -1.17000000000e+00
  -1.16000000000e+00
  -1.15000000000e+00
  -1.14000000000e+00
  -1.13000000000e+00
  -1.12000000000e+00
  -1.11000000000e+00
  -1.10000000000e+00
  -1.09000000000e+00
  -1.08000000000e+00
  -1.07000000000e+00
  -1.06000000000e+00
  -1.05000000000e+00
  -1.04000000000e+00
  -1.03000000000e+00
  -1.02000000000e+00
  -1.01000000000e+00
  -1.00000000000e+00
  -9.90000000000e-01
  -9.80000000000e-01
  -9.70000000000e-01
  -9.60000000000e-01
  -9.50000000000e-01
  -9.40000000000e-01
  -9.30000000000e-01
  -9.20000000000e-01
  -9.10000000000e-01
  -9.00000000000e-01
  -8.90000000000e-01
  -8.80000000000e-01
  -8.70000000000e-01
  -8.60000000000e-01
  -8.50000000000e-01
  -8.40000000000e-01
  -8.30000000000e-01
  -8.20000000000e-01
  -8.10000000000e-01
  -8.00000000000e-01
  -7.90000000000e-01
  -7.80000000000e-01
  -7.70000000000e-01
  -7.60000000000e-01
  -7.50000000000e-01
  -7.40000000000e-01
  -7.30000000000e-01
  -7.20000000000e-01
  -7.10000000000e-01
  -7.00000000000e-01
  -6.90000000000e-01
  -6.80000000000e-01
  -6.70000000000e-01
  -6.60000000000e-01
  -6.50000000000e-01
  -6.40000000000e-01
  -6.30000000000e-01
  -6.20000000000e-01
  -6.10000000000e-01
  -6.00000000000e-01
  -5.90000000000e-01
  -5.80000000000e-01
  -5.70000000000e-01
  -5.60000000000e-01
  -5.50000000000e-01
  -5.40000000000e-01
  -5.30000000000e-01
  -5.20000000000e-01
  -5.10000000000e-01
  -5.00000000000e-01
  -4.90000000000e-01
  -4.80000000000e-01
  -4.70000000000e-01
  -4.60000000000e-01
  -4.50000000000e-01
  -4.40000000000e-01
  -4.30000000000e-01
  -4.20000000000e-01
  -4.10000000000e-01
  -4.00000000000e-01
  -3.90000000000e-01
  -3.80000000000e-01
  -3.70000000000e-01
  -3.60000000000e-01
  -3.50000000000e-01
  -3.40000000000e-01
  -3.30000000000e-01
  -3.20000000000e-01
  -3.10000000000e-01
  -3.00000000000e-01
  -2.90000000000e-01
  -2.80000000000e-01
  -2.70000000000e-01
  -2.60000000000e-01
  -2.50000000000e-01
  -2.40000000000e-01
  -2.30000000000e-01
  -2.20000000000e-01
  -2.10000000000e-01
  -2.00000000000e-01
  -1.90000000000e-01
  -1.80000000000e-01
  -1.70000000000e-01
  -1.60000000000e-01
  -1.50000000000e-01
  -1.40000000000e-01
  -1.30000000000e-01
  -1.20000000000e-01
  -1.10000000000e-01
  -1.00000000000e-01
  -9.00000000000e-02
  -8.00000000000e-02
  -7.00000000000e-02
  -6.00000000000e-02
  -5.00000000000e-02
  -4.00000000000e-02
  -3.00000000000e-02
  -2.00000000000e-02
  -1.00000000000e-02
  +0.00000000000e+00
  +1.00000000000e-02
  +2.00000000000e-02
  +3.00000000000e-02
  +4.00000000000e-02
  +5.00000000000e-02
  +6.00000000000e-02
  +7.00000000000e-02
  +8.00000000000e-02
  +9.00000000000e-02
  +1.00000000000e-01
  +1.10000000000e-01
  +1.20000000000e-01
  +1.30000000000e-01
  +1.40000000000e-01
  +1.50000000000e-01
  +1.60000000000e-01
  +1.70000000000e-01
  +1.80000000000e-01
  +1.90000000000e-01
  +2.00000000000e-01
  +2.10000000000e-01
  +2.20000000000e-01
  +2.30000000000e-01
  +2.40000000000e-01
  +2.50000000000e-01
  +2.60000000000e-01
  +2.70000000000e-01
  +2.80000000000e-01
  +2.90000000000e-01
  +3.00000000000e-01
  +3.10000000000e-01
  +3.20000000000e-01
  +3.30000000000e-01
  +3.40000000000e-01
  +3.50000000000e-01
  +3.60000000000e-01
  +3.70000000000e-01
  +3.80000000000e-01
  +3.90000000000e-01
  +4.00000000000e-01
  +4.10000000000e-01
  +4.20000000000e-01
  +4.30000000000e-01
  +4.40000000000e-01
  +4.50000000000e-01
  +4.60000000000e-01
  +4.70000000000e-01
  +4.80000000000e-01
  +4.90000000000e-01
  +5.00000000000e-01
  +5.10000000000e-01
  +5.20000000000e-01
  +5.30000000000e-01
  +5.40000000000e-01
  +5.50000000000e-01
  +5.60000000000e-01
  +5.70000000000e-01
  +5.80000000000e-01
  +5.90000000000e-01
  +6.00000000000e-01
  +6.10000000000e-01
  +6.20000000000e-01
  +6.30000000000e-01
  +6.40000000000e-01
  +6.50000000000e-01
  +6.60000000000e-01
  +6.70000000000e-01
  +6.80000000000e-01
  +6.90000000000e-01
  +7.00000000000e-01
  +7.10000000000e-01
  +7.20000000000e-01
  +7.30000000000e-01
  +7.40000000000e-01
  +7.50000000000e-01
  +7.60000000000e-01
  +7.70000000000e-01
  +7.80000000000e-01
  +7.90000000000e-01
  +8.00000000000e-01
  +8.10000000000e-01
  +8.20000000000e-01
  +8.30000000000e-01
  +8.40000000000e-01
  +8.50000000000e-01
  +8.60000000000e-01
  +8.70000000000e-01
  +8.80000000000e-01
  +8.90000000000e-01
  +9.00000000000e-01
  +9.10000000000e-01
  +9.20000000000e-01
  +9.30000000000e-01
  +9.40000000000e-01
  +9.50000000000e-01
  +9.60000000000e-01
  +9.70000000000e-01
  +9.80000000000e-01
  +9.90000000000e-01
  +1.00000000000e+00
  +1.01000000000e+00
  +1.02000000000e+00
  +1.03000000000e+00
  +1.04000000000e+00
  +1.05000000000e+00
  +1.06000000000e+00
  +1.07000000000e+00
  +1.08000000000e+00
  +1.09000000000e+00
  +1.10000000000e+00
  +1.11000000000e+00
  +1.12000000000e+00
  +1.13000000000e+00
  +1.14000000000e+00
  +1.15000000000e+00
  +1.16000000000e+00
  +1.17000000000e+00
  +1.18000000000e+00
  +1.19000000000e+00
  +1.20000000000e+00
  +1.21000000000e+00
  +1.22000000000e+00
  +1.23000000000e+00
  +1.24000000000e+00
  +1.25000000000e+00
  +1.26000000000e+00
  +1.27000000000e+00
  +1.28000000000e+00
  +1.29000000000e+00
  +1.30000000000e+00
</indep>
<dep vd v>
  -1.34200000000e-08
  -1.30800000000e-08
  -1.27500000000e-08
  -1.24300000000e-08
  -1.21100000000e-08
  -1.18000000000e-08
  -1.14900000000e-08
  -1.11900000000e-08
  -1.09000000000e-08
  -1.06100000000e-08
  -1.03300000000e-08
  -1.00600000000e-08
  -9.79400000000e-09
  -9.53200000000e-09
  -9.27600000000e-09
  -9.02700000000e-09
  -8.78200000000e-09
  -8.54400000000e-09
  -8.31000000000e-09
  -8.08200000000e-09
  -7.85900000000e-09
  -7.64200000000e-09
  -7.42900000000e-09
  -7.22200000000e-09
  -7.01900000000e-09
  -6.82100000000e-09
  -6.62800000000e-09
  -6.43900000000e-09
  -6.25500000000e-09
  -6.07500000000e-09
  -5.90000000000e-09
  -5.72900000000e-09
  -5.56200000000e-09
  -5.39900000000e-09
  -5.24000000000e-09
  -5.08500000000e-09
  -4.93400000000e-09
  -4.78700000000e-09
  -4.64300000000e-09
  -4.50300000000e-09
  -4.36700000000e-09
  -4.23400000000e-09
  -4.10400000000e-09
  -3.97800000000e-09
  -3.85500000000e-09
  -3.73600000000e-09
  -3.61900000000e-09
  -3.50600000000e-09
  -3.39600000000e-09
  -3.28800000000e-09
  -3.18400000000e-09
  -3.08200000000e-09
  -2.98300000000e-09
  -2.88700000000e-09
  -2.79300000000e-09
  -2.70200000000e-09
  -2.61300000000e-09
  -2.52700000000e-09
  -2.44400000000e-09
  -2.36200000000e-09
  -2.28300000000e-09
  -2.20700000000e-09
  -2.13200000000e-09
  -2.06000000000e-09
  -1.98900000000e-09
  -1.92100000000e-09
  -1.85500000000e-09
  -1.79100000000e-09
  -1.72800000000e-09
  -1.66800000000e-09
  -1.60900000000e-09
  -1.55200000000e-09
  -1.49700000000e-09
  -1.44300000000e-09
  -1.39100000000e-09
  -1.34100000000e-09
  -1.29200000000e-09
  -1.24500000000e-09
  -1.19900000000e-09
  -1.15500000000e-09
  -1.11200000000e-09
  -1.07100000000e-09
  -1.03100000000e-09
  -9.91700000000e-10
  -9.54100000000e-10
  -9.17700000000e-10
  -8.82500000000e-10
  -8.48500000000e-10
  -8.15600000000e-10
  -7.83800000000e-10
  -7.53000000000e-10
  -7.23400000000e-10
  -6.94700000000e-10
  -6.67000000000e-10
  -6.40300000000e-10
  -6.14500000000e-10
  -5.89600000000e-10
  -5.65600000000e-10
  -5.42400000000e-10
  -5.20100000000e-10
  -4.98600000000e-10
  -4.77800000000e-10
  -4.57900000000e-10
  -4.38700000000e-10
  -4.20300000000e-10
  -4.02600000000e-10
  -3.85700000000e-10
  -3.69600000000e-10
  -3.54200000000e-10
  -3.39600000000e-10
  -3.26000000000e-10
  -3.13400000000e-10
  -3.01800000000e-10
  -2.91700000000e-10
  -2.83100000000e-10
  -2.76500000000e-10
  -2.72400000000e-10
  -2.71700000000e-10
  -2.75300000000e-10
  -2.84600000000e-10
  -3.01700000000e-10
  -3.29200000000e-10
  -3.70800000000e-10
  -4.31800000000e-10
  -5.19100000000e-10
  -6.42400000000e-10
  -8.15100000000e-10
  -1.05500000000e-09
  -1.38800000000e-09
  -1.84800000000e-09
  -2.48200000000e-09
  -3.35500000000e-09
  -4.55400000000e-09
  -6.20100000000e-09
  -8.45800000000e-09
  -1.15500000000e-08
  -1.57600000000e-08
  -2.15000000000e-08
  -2.92800000000e-08
  -3.97900000000e-08
  -5.38700000000e-08
  -7.26100000000e-08
  -9.73000000000e-08
  -1.29400000000e-07
  -1.70600000000e-07
  -2.22600000000e-07
  -2.87100000000e-07
  -3.65500000000e-07
  -4.59000000000e-07
  -5.68400000000e-07
  -6.93900000000e-07
  -8.35500000000e-07
  -9.92400000000e-07
  -1.16400000000e-06
  -1.34900000000e-06
  -1.54600000000e-06
  -1.75500000000e-06
  -1.97300000000e-06
  -2.20000000000e-06
  -2.43500000000e-06
  -2.67500000000e-06
  -2.92200000000e-06
  -3.17300000000e-06
  -3.42900000000e-06
  -3.68700000000e-06
  -3.94800000000e-06
  -4.21200000000e-06
  -4.47600000000e-06
  -4.74300000000e-06
  -5.00900000000e-06
  -5.27600000000e-06
  -5.54400000000e-06
  -5.81000000000e-06
  -6.07700000000e-06
  -6.34200000000e-06
  -6.60700000000e-06
  -6.87000000000e-06
  -7.13100000000e-06
  -7.39100000000e-06
  -7.64900000000e-06
  -7.90600000000e-06
  -8.16000000000e-06
  -8.41100000000e-06
  -8.66100000000e-06
  -8.90800000000e-06
  -9.15200000000e-06
  -9.39400000000e-06
  -9.63300000000e-06
  -9.86900000000e-06
  -1.01000000000e-05
  -1.03300000000e-05
  -1.05600000000e-05
  -1.07800000000e-05
  -1.10100000000e-05
  -1.12200000000e-05
  -1.14400000000e-05
  -1.16500000000e-05
  -1.18600000000e-05
  -1.20700000000e-05
  -1.22700000000e-05
  -1.24700000000e-05
  -1.26600000000e-05
  -1.28500000000e-05
  -1.30400000000e-05
  -1.32300000000e-05
  -1.34100000000e-05
  -1.35900000000e-05
  -1.37700000000e-05
  -1.39400000000e-05
  -1.41100000000e-05
  -1.42800000000e-05
  -1.44400000000e-05
  -1.46000000000e-05
  -1.47600000000e-05
  -1.49100000000e-05
  -1.50600000000e-05
  -1.52100000000e-05
  -1.53500000000e-05
  -1.54900000000e-05
  -1.56300000000e-05
  -1.57700000000e-05
  -1.59000000000e-05
  -1.60300000000e-05
  -1.61600000000e-05
  -1.62800000000e-05
  -1.64000000000e-05
  -1.65200000000e-05
  -1.66400000000e-05
  -1.67500000000e-05
  -1.68600000000e-05
  -1.69600000000e-05
  -1.70700000000e-05
  -1.71700000000e-05
  -1.72700000000e-05
  -1.73700000000e-05
  -1.74600000000e-05
  -1.75500000000e-05
  -1.76400000000e-05
  -1.77300000000e-05
  -1.78200000000e-05
  -1.79000000000e-05
  -1.79800000000e-05
  -1.80600000000e-05
  -1.81300000000e-05
  -1.82100000000e-05
  -1.82800000000e-05
  -1.83500000000e-05
  -1.84100000000e-05
  -1.84800000000e-05
  -1.85400000000e-05
  -1.86000000000e-05
  -1.86600000000e-05
  -1.87200000000e-05
  -1.87700000000e-05
  -1.88300000000e-05
  -1.88800000000e-05
  -1.89300000000e-05
  -1.89800000000e-05
  -1.90200000000e-05
  -1.90700000000e-05
  -1.91100000000e-05
</dep>
<dep gm2 v>
  +0.00000000000e+00
  +0.00000000000e+00
  +1.34200000000e-04
  -1.37600000000e-04
  +7.13400000000e-08
  +7.04900000000e-08
  +6.89900000000e-08
  +6.82100000000e-08
  +6.65100000000e-08
  +6.59400000000e-08
  +6.45900000000e-08
  +6.36600000000e-08
  +6.24600000000e-08
  +6.13200000000e-08
  +6.03300000000e-08
  +5.93300000000e-08
  +5.84100000000e-08
  +5.72000000000e-08
  +5.62700000000e-08
  +5.52100000000e-08
  +5.44300000000e-08
  +5.32200000000e-08
  +5.24400000000e-08
  +5.13000000000e-08
  +5.05900000000e-08
  +4.95200000000e-08
  +4.86700000000e-08
  +4.77500000000e-08
  +4.69000000000e-08
  +4.59700000000e-08
  +4.51900000000e-08
  +4.41200000000e-08
  +4.34900000000e-08
  +4.27000000000e-08
  +4.17100000000e-08
  +4.09300000000e-08
  +4.02900000000e-08
  +3.92200000000e-08
  +3.87200000000e-08
  +3.78700000000e-08
  +3.69500000000e-08
  +3.63800000000e-08
  +3.57400000000e-08
  +3.48200000000e-08
  +3.41800000000e-08
  +3.34700000000e-08
  +3.26800000000e-08
  +3.23300000000e-08
  +3.11900000000e-08
  +3.09100000000e-08
  +2.99800000000e-08
  +2.95600000000e-08
  +2.89200000000e-08
  +2.80700000000e-08
  +2.75000000000e-08
  +2.72100000000e-08
  +2.64300000000e-08
  +2.56500000000e-08
  +2.53000000000e-08
  +2.48000000000e-08
  +2.40200000000e-08
  +2.35900000000e-08
  +2.29500000000e-08
  +2.26700000000e-08
  +2.19600000000e-08
  +2.14600000000e-08
  +2.09600000000e-08
  +2.04600000000e-08
  +2.00400000000e-08
  +1.94700000000e-08
  +1.92600000000e-08
  +1.82600000000e-08
  +1.83300000000e-08
  +1.76200000000e-08
  +1.74100000000e-08
  +1.67700000000e-08
  +1.64100000000e-08
  +1.59900000000e-08
  +1.54900000000e-08
  +1.53500000000e-08
  +1.46400000000e-08
  +1.47100000000e-08
  +1.38600000000e-08
  +1.37800000000e-08
  +1.31500000000e-08
  +1.30700000000e-08
  +1.27200000000e-08
  +1.22900000000e-08
  +1.20100000000e-08
  +1.15100000000e-08
  +1.14400000000e-08
  +1.07300000000e-08
  +1.10100000000e-08
  +1.03000000000e-08
  +1.02300000000e-08
  +9.80500000000e-09
  +9.52100000000e-09
  +9.09500000000e-09
  +9.37900000000e-09
  +8.59800000000e-09
  +8.74000000000e-09
  +8.17100000000e-09
  +8.17100000000e-09
  +8.02900000000e-09
  +7.74500000000e-09
  +7.53200000000e-09
  +7.67400000000e-09
  +7.39000000000e-09
  +7.67400000000e-09
  +7.46100000000e-09
  +8.02900000000e-09
  +8.17100000000e-09
  +9.09500000000e-09
  +9.94800000000e-09
  +1.11600000000e-08
  +1.33600000000e-08
  +1.61300000000e-08
  +1.99700000000e-08
  +2.52200000000e-08
  +3.31800000000e-08
  +4.31300000000e-08
  +5.76300000000e-08
  +7.73100000000e-08
  +1.04300000000e-07
  +1.41700000000e-07
  +1.92800000000e-07
  +2.63500000000e-07
  +3.60100000000e-07
  +4.93300000000e-07
  +6.75700000000e-07
  +9.26500000000e-07
  +1.27000000000e-06
  +1.74200000000e-06
  +2.38700000000e-06
  +3.26800000000e-06
  +4.46900000000e-06
  +6.10200000000e-06
  +8.30900000000e-06
  +1.12800000000e-05
  +1.52300000000e-05
  +2.04400000000e-05
  +2.72100000000e-05
  +3.58300000000e-05
  +4.65400000000e-05
  +5.94300000000e-05
  +7.43500000000e-05
  +9.08200000000e-05
  +1.08000000000e-04
  +1.24600000000e-04
  +1.39400000000e-04
  +1.51100000000e-04
  +1.58600000000e-04
  +1.61600000000e-04
  +1.60000000000e-04
  +1.54400000000e-04
  +1.45800000000e-04
  +1.35000000000e-04
  +1.23100000000e-04
  +1.10600000000e-04
  +9.83000000000e-05
  +8.64600000000e-05
  +7.53600000000e-05
  +6.51200000000e-05
  +5.57900000000e-05
  +4.73400000000e-05
  +3.97200000000e-05
  +3.28400000000e-05
  +2.66500000000e-05
  +2.10700000000e-05
  +1.60300000000e-05
  +1.14700000000e-05
  +7.33800000000e-06
  +3.59200000000e-06
  +1.86400000000e-07
  -2.91300000000e-06
  -5.73900000000e-06
  -8.31900000000e-06
  -1.06800000000e-05
  -1.28300000000e-05
  -1.48100000000e-05
  -1.66200000000e-05
  -1.82800000000e-05
  -1.98000000000e-05
  -2.11900000000e-05
  -2.24600000000e-05
  -2.36300000000e-05
  -2.47000000000e-05
  -2.56700000000e-05
  -2.65600000000e-05
  -2.73700000000e-05
  -2.81000000000e-05
  -2.87600000000e-05
  -2.93600000000e-05
  -2.98900000000e-05
  -3.03700000000e-05
  -3.07900000000e-05
  -3.11600000000e-05
  -3.14900000000e-05
  -3.17700000000e-05
  -3.20000000000e-05
  -3.22000000000e-05
  -3.23500000000e-05
  -3.24800000000e-05
  -3.25600000000e-05
  -3.26200000000e-05
  -3.26500000000e-05
  -3.26400000000e-05
  -3.26200000000e-05
  -3.25600000000e-05
  -3.24900000000e-05
  -3.23900000000e-05
  -3.22700000000e-05
  -3.21300000000e-05
  -3.19700000000e-05
  -3.17900000000e-05
  -3.16000000000e-05
  -3.13900000000e-05
  -3.11700000000e-05
  -3.09400000000e-05
  -3.06900000000e-05
  -3.04400000000e-05
  -3.01700000000e-05
  -2.98900000000e-05
  -2.96000000000e-05
  -2.93100000000e-05
  -2.90100000000e-05
  -2.87000000000e-05
  -2.83800000000e-05
  -2.80600000000e-05
  -2.77300000000e-05
  -2.74000000000e-05
  -2.70700000000e-05
  -2.67300000000e-05
  -2.63900000000e-05
  -2.60400000000e-05
  -2.57000000000e-05
  -2.53500000000e-05
  -2.50000000000e-05
  -2.46500000000e-05
  -2.43000000000e-05
  -2.39500000000e-05
  -2.36000000000e-05
  -2.32500000000e-05
  -2.29000000000e-05
  -2.25500000000e-05
  -2.22000000000e-05
  -2.18500000000e-05
  -2.15000000000e-05
  -2.11600000000e-05
  -2.08200000000e-05
  -2.04800000000e-05
  -2.01400000000e-05
  -1.98000000000e-05
  -1.94700000000e-05
  -1.91400000000e-05
  -1.88100000000e-05
  -1.84900000000e-05
  -1.81700000000e-05
  -1.78500000000e-05
  -1.75300000000e-05
  -1.72200000000e-05
</dep>
<dep gm v>
  +0.00000000000e+00
  +1.34200000000e-06
  -3.39800000000e-08
  -3.32700000000e-08
  -3.25600000000e-08
  -3.18700000000e-08
  -3.11900000000e-08
  -3.05200000000e-08
  -2.98600000000e-08
  -2.92200000000e-08
  -2.85800000000e-08
  -2.79600000000e-08
  -2.73400000000e-08
  -2.67400000000e-08
  -2.61500000000e-08
  -2.55600000000e-08
  -2.49900000000e-08
  -2.44300000000e-08
  -2.38800000000e-08
  -2.33300000000e-08
  -2.28000000000e-08
  -2.22800000000e-08
  -2.17600000000e-08
  -2.12600000000e-08
  -2.07600000000e-08
  -2.02700000000e-08
  -1.98000000000e-08
  -1.93300000000e-08
  -1.88700000000e-08
  -1.84200000000e-08
  -1.79800000000e-08
  -1.75400000000e-08
  -1.71100000000e-08
  -1.67000000000e-08
  -1.62900000000e-08
  -1.58800000000e-08
  -1.54900000000e-08
  -1.51000000000e-08
  -1.47300000000e-08
  -1.43600000000e-08
  -1.39900000000e-08
  -1.36400000000e-08
  -1.32900000000e-08
  -1.29500000000e-08
  -1.26100000000e-08
  -1.22800000000e-08
  -1.19600000000e-08
  -1.16500000000e-08
  -1.13400000000e-08
  -1.10400000000e-08
  -1.07400000000e-08
  -1.04500000000e-08
  -1.01700000000e-08
  -9.89900000000e-09
  -9.62700000000e-09
  -9.36300000000e-09
  -9.10600000000e-09
  -8.85300000000e-09
  -8.60500000000e-09
  -8.36500000000e-09
  -8.12900000000e-09
  -7.90000000000e-09
  -7.67300000000e-09
  -7.45400000000e-09
  -7.23900000000e-09
  -7.02900000000e-09
  -6.82500000000e-09
  -6.62400000000e-09
  -6.43000000000e-09
  -6.23700000000e-09
  -6.05500000000e-09
  -5.87100000000e-09
  -5.69500000000e-09
  -5.52100000000e-09
  -5.35300000000e-09
  -5.18900000000e-09
  -5.02900000000e-09
  -4.87400000000e-09
  -4.72100000000e-09
  -4.57400000000e-09
  -4.42700000000e-09
  -4.28900000000e-09
  -4.15100000000e-09
  -4.02000000000e-09
  -3.88900000000e-09
  -3.76200000000e-09
  -3.63900000000e-09
  -3.51900000000e-09
  -3.40300000000e-09
  -3.28900000000e-09
  -3.18200000000e-09
  -3.07200000000e-09
  -2.96900000000e-09
  -2.86600000000e-09
  -2.76800000000e-09
  -2.67300000000e-09
  -2.58200000000e-09
  -2.48800000000e-09
  -2.40200000000e-09
  -2.31500000000e-09
  -2.23300000000e-09
  -2.15200000000e-09
  -2.07100000000e-09
  -1.99400000000e-09
  -1.91800000000e-09
  -1.84200000000e-09
  -1.76800000000e-09
  -1.69100000000e-09
  -1.61600000000e-09
  -1.53600000000e-09
  -1.45400000000e-09
  -1.36400000000e-09
  -1.26400000000e-09
  -1.15300000000e-09
  -1.01900000000e-09
  -8.57600000000e-10
  -6.58000000000e-10
  -4.05700000000e-10
  -7.39000000000e-11
  +3.57400000000e-10
  +9.33700000000e-10
  +1.70700000000e-09
  +2.75000000000e-09
  +4.16700000000e-09
  +6.09500000000e-09
  +8.73000000000e-09
  +1.23300000000e-08
  +1.72600000000e-08
  +2.40200000000e-08
  +3.32900000000e-08
  +4.59900000000e-08
  +6.34100000000e-08
  +8.72700000000e-08
  +1.20000000000e-07
  +1.64600000000e-07
  +2.25700000000e-07
  +3.08800000000e-07
  +4.21500000000e-07
  +5.73800000000e-07
  +7.78300000000e-07
  +1.05000000000e-06
  +1.40900000000e-06
  +1.87400000000e-06
  +2.46900000000e-06
  +3.21200000000e-06
  +4.12000000000e-06
  +5.20000000000e-06
  +6.44600000000e-06
  +7.84100000000e-06
  +9.35200000000e-06
  +1.09400000000e-05
  +1.25500000000e-05
  +1.41500000000e-05
  +1.57000000000e-05
  +1.71600000000e-05
  +1.85100000000e-05
  +1.97400000000e-05
  +2.08400000000e-05
  +2.18300000000e-05
  +2.26900000000e-05
  +2.34400000000e-05
  +2.41000000000e-05
  +2.46500000000e-05
  +2.51300000000e-05
