<Qucs Dataset 0.0.18>
<indep v 261>
  -1.30000000000e+00
  -1.29000000000e+00
  -1.28000000000e+00
  -1.27000000000e+00
  -1.26000000000e+00
  -1.25000000000e+00
  -1.24000000000e+00
  -1.23000000000e+00
  -1.22000000000e+00
  -1.21000000000e+00
  -1.20000000000e+00
  -1.19000000000e+00
  -1.18000000000e+00
  -1.17000000000e+00
  -1.16000000000e+00
  -1.15000000000e+00
  -1.14000000000e+00
  -1.13000000000e+00
  -1.12000000000e+00
  -1.11000000000e+00
  -1.10000000000e+00
  -1.09000000000e+00
  -1.08000000000e+00
  -1.07000000000e+00
  -1.06000000000e+00
  -1.05000000000e+00
  -1.04000000000e+00
  -1.03000000000e+00
  -1.02000000000e+00
  -1.01000000000e+00
  -1.00000000000e+00
  -9.90000000000e-01
  -9.80000000000e-01
  -9.70000000000e-01
  -9.60000000000e-01
  -9.50000000000e-01
  -9.40000000000e-01
  -9.30000000000e-01
  -9.20000000000e-01
  -9.10000000000e-01
  -9.00000000000e-01
  -8.90000000000e-01
  -8.80000000000e-01
  -8.70000000000e-01
  -8.60000000000e-01
  -8.50000000000e-01
  -8.40000000000e-01
  -8.30000000000e-01
  -8.20000000000e-01
  -8.10000000000e-01
  -8.00000000000e-01
  -7.90000000000e-01
  -7.80000000000e-01
  -7.70000000000e-01
  -7.60000000000e-01
  -7.50000000000e-01
  -7.40000000000e-01
  -7.30000000000e-01
  -7.20000000000e-01
  -7.10000000000e-01
  -7.00000000000e-01
  -6.90000000000e-01
  -6.80000000000e-01
  -6.70000000000e-01
  -6.60000000000e-01
  -6.50000000000e-01
  -6.40000000000e-01
  -6.30000000000e-01
  -6.20000000000e-01
  -6.10000000000e-01
  -6.00000000000e-01
  -5.90000000000e-01
  -5.80000000000e-01
  -5.70000000000e-01
  -5.60000000000e-01
  -5.50000000000e-01
  -5.40000000000e-01
  -5.30000000000e-01
  -5.20000000000e-01
  -5.10000000000e-01
  -5.00000000000e-01
  -4.90000000000e-01
  -4.80000000000e-01
  -4.70000000000e-01
  -4.60000000000e-01
  -4.50000000000e-01
  -4.40000000000e-01
  -4.30000000000e-01
  -4.20000000000e-01
  -4.10000000000e-01
  -4.00000000000e-01
  -3.90000000000e-01
  -3.80000000000e-01
  -3.70000000000e-01
  -3.60000000000e-01
  -3.50000000000e-01
  -3.40000000000e-01
  -3.30000000000e-01
  -3.20000000000e-01
  -3.10000000000e-01
  -3.00000000000e-01
  -2.90000000000e-01
  -2.80000000000e-01
  -2.70000000000e-01
  -2.60000000000e-01
  -2.50000000000e-01
  -2.40000000000e-01
  -2.30000000000e-01
  -2.20000000000e-01
  -2.10000000000e-01
  -2.00000000000e-01
  -1.90000000000e-01
  -1.80000000000e-01
  -1.70000000000e-01
  -1.60000000000e-01
  -1.50000000000e-01
  -1.40000000000e-01
  -1.30000000000e-01
  -1.20000000000e-01
  -1.10000000000e-01
  -1.00000000000e-01
  -9.00000000000e-02
  -8.00000000000e-02
  -7.00000000000e-02
  -6.00000000000e-02
  -5.00000000000e-02
  -4.00000000000e-02
  -3.00000000000e-02
  -2.00000000000e-02
  -1.00000000000e-02
  +0.00000000000e+00
  +1.00000000000e-02
  +2.00000000000e-02
  +3.00000000000e-02
  +4.00000000000e-02
  +5.00000000000e-02
  +6.00000000000e-02
  +7.00000000000e-02
  +8.00000000000e-02
  +9.00000000000e-02
  +1.00000000000e-01
  +1.10000000000e-01
  +1.20000000000e-01
  +1.30000000000e-01
  +1.40000000000e-01
  +1.50000000000e-01
  +1.60000000000e-01
  +1.70000000000e-01
  +1.80000000000e-01
  +1.90000000000e-01
  +2.00000000000e-01
  +2.10000000000e-01
  +2.20000000000e-01
  +2.30000000000e-01
  +2.40000000000e-01
  +2.50000000000e-01
  +2.60000000000e-01
  +2.70000000000e-01
  +2.80000000000e-01
  +2.90000000000e-01
  +3.00000000000e-01
  +3.10000000000e-01
  +3.20000000000e-01
  +3.30000000000e-01
  +3.40000000000e-01
  +3.50000000000e-01
  +3.60000000000e-01
  +3.70000000000e-01
  +3.80000000000e-01
  +3.90000000000e-01
  +4.00000000000e-01
  +4.10000000000e-01
  +4.20000000000e-01
  +4.30000000000e-01
  +4.40000000000e-01
  +4.50000000000e-01
  +4.60000000000e-01
  +4.70000000000e-01
  +4.80000000000e-01
  +4.90000000000e-01
  +5.00000000000e-01
  +5.10000000000e-01
  +5.20000000000e-01
  +5.30000000000e-01
  +5.40000000000e-01
  +5.50000000000e-01
  +5.60000000000e-01
  +5.70000000000e-01
  +5.80000000000e-01
  +5.90000000000e-01
  +6.00000000000e-01
  +6.10000000000e-01
  +6.20000000000e-01
  +6.30000000000e-01
  +6.40000000000e-01
  +6.50000000000e-01
  +6.60000000000e-01
  +6.70000000000e-01
  +6.80000000000e-01
  +6.90000000000e-01
  +7.00000000000e-01
  +7.10000000000e-01
  +7.20000000000e-01
  +7.30000000000e-01
  +7.40000000000e-01
  +7.50000000000e-01
  +7.60000000000e-01
  +7.70000000000e-01
  +7.80000000000e-01
  +7.90000000000e-01
  +8.00000000000e-01
  +8.10000000000e-01
  +8.20000000000e-01
  +8.30000000000e-01
  +8.40000000000e-01
  +8.50000000000e-01
  +8.60000000000e-01
  +8.70000000000e-01
  +8.80000000000e-01
  +8.90000000000e-01
  +9.00000000000e-01
  +9.10000000000e-01
  +9.20000000000e-01
  +9.30000000000e-01
  +9.40000000000e-01
  +9.50000000000e-01
  +9.60000000000e-01
  +9.70000000000e-01
  +9.80000000000e-01
  +9.90000000000e-01
  +1.00000000000e+00
  +1.01000000000e+00
  +1.02000000000e+00
  +1.03000000000e+00
  +1.04000000000e+00
  +1.05000000000e+00
  +1.06000000000e+00
  +1.07000000000e+00
  +1.08000000000e+00
  +1.09000000000e+00
  +1.10000000000e+00
  +1.11000000000e+00
  +1.12000000000e+00
  +1.13000000000e+00
  +1.14000000000e+00
  +1.15000000000e+00
  +1.16000000000e+00
  +1.17000000000e+00
  +1.18000000000e+00
  +1.19000000000e+00
  +1.20000000000e+00
  +1.21000000000e+00
  +1.22000000000e+00
  +1.23000000000e+00
  +1.24000000000e+00
  +1.25000000000e+00
  +1.26000000000e+00
  +1.27000000000e+00
  +1.28000000000e+00
  +1.29000000000e+00
  +1.30000000000e+00
</indep>
<dep vd v>
  -1.34200000000e-08
  -1.30800000000e-08
  -1.27500000000e-08
  -1.24300000000e-08
  -1.21100000000e-08
  -1.18000000000e-08
  -1.14900000000e-08
  -1.11900000000e-08
  -1.09000000000e-08
  -1.06100000000e-08
  -1.03300000000e-08
  -1.00600000000e-08
  -9.79300000000e-09
  -9.53200000000e-09
  -9.27600000000e-09
  -9.02600000000e-09
  -8.78200000000e-09
  -8.54300000000e-09
  -8.31000000000e-09
  -8.08200000000e-09
  -7.85900000000e-09
  -7.64100000000e-09
  -7.42900000000e-09
  -7.22100000000e-09
  -7.01900000000e-09
  -6.82100000000e-09
  -6.62700000000e-09
  -6.43900000000e-09
  -6.25500000000e-09
  -6.07500000000e-09
  -5.89900000000e-09
  -5.72800000000e-09
  -5.56100000000e-09
  -5.39800000000e-09
  -5.24000000000e-09
  -5.08500000000e-09
  -4.93400000000e-09
  -4.78600000000e-09
  -4.64300000000e-09
  -4.50300000000e-09
  -4.36700000000e-09
  -4.23400000000e-09
  -4.10400000000e-09
  -3.97800000000e-09
  -3.85500000000e-09
  -3.73600000000e-09
  -3.61900000000e-09
  -3.50600000000e-09
  -3.39500000000e-09
  -3.28800000000e-09
  -3.18300000000e-09
  -3.08200000000e-09
  -2.98300000000e-09
  -2.88600000000e-09
  -2.79300000000e-09
  -2.70200000000e-09
  -2.61300000000e-09
  -2.52700000000e-09
  -2.44400000000e-09
  -2.36200000000e-09
  -2.28300000000e-09
  -2.20700000000e-09
  -2.13200000000e-09
  -2.06000000000e-09
  -1.98900000000e-09
  -1.92100000000e-09
  -1.85500000000e-09
  -1.79100000000e-09
  -1.72800000000e-09
  -1.66800000000e-09
  -1.60900000000e-09
  -1.55200000000e-09
  -1.49700000000e-09
  -1.44300000000e-09
  -1.39100000000e-09
  -1.34100000000e-09
  -1.29200000000e-09
  -1.24500000000e-09
  -1.19900000000e-09
  -1.15500000000e-09
  -1.11200000000e-09
  -1.07100000000e-09
  -1.03100000000e-09
  -9.91700000000e-10
  -9.54000000000e-10
  -9.17700000000e-10
  -8.82500000000e-10
  -8.48400000000e-10
  -8.15500000000e-10
  -7.83700000000e-10
  -7.53000000000e-10
  -7.23300000000e-10
  -6.94700000000e-10
  -6.67000000000e-10
  -6.40300000000e-10
  -6.14500000000e-10
  -5.89600000000e-10
  -5.65600000000e-10
  -5.42400000000e-10
  -5.20100000000e-10
  -4.98600000000e-10
  -4.77900000000e-10
  -4.58000000000e-10
  -4.38900000000e-10
  -4.20600000000e-10
  -4.03000000000e-10
  -3.86200000000e-10
  -3.70300000000e-10
  -3.55200000000e-10
  -3.41000000000e-10
  -3.27800000000e-10
  -3.15800000000e-10
  -3.05200000000e-10
  -2.96200000000e-10
  -2.89300000000e-10
  -2.84900000000e-10
  -2.83900000000e-10
  -2.87300000000e-10
  -2.96500000000e-10
  -3.13600000000e-10
  -3.41100000000e-10
  -3.83000000000e-10
  -4.44100000000e-10
  -5.31700000000e-10
  -6.55400000000e-10
  -8.28200000000e-10
  -1.06800000000e-09
  -1.40100000000e-09
  -1.85900000000e-09
  -2.49100000000e-09
  -3.35800000000e-09
  -4.54800000000e-09
  -6.18000000000e-09
  -8.41200000000e-09
  -1.14600000000e-08
  -1.56200000000e-08
  -2.12700000000e-08
  -2.89300000000e-08
  -3.92500000000e-08
  -5.30800000000e-08
  -7.14600000000e-08
  -9.56600000000e-08
  -1.27100000000e-07
  -1.67500000000e-07
  -2.18500000000e-07
  -2.81800000000e-07
  -3.58800000000e-07
  -4.50700000000e-07
  -5.58400000000e-07
  -6.82200000000e-07
  -8.22000000000e-07
  -9.77300000000e-07
  -1.14700000000e-06
  -1.33100000000e-06
  -1.52700000000e-06
  -1.73400000000e-06
  -1.95200000000e-06
  -2.17800000000e-06
  -2.41200000000e-06
  -2.65300000000e-06
  -2.89900000000e-06
  -3.15100000000e-06
  -3.40600000000e-06
  -3.66500000000e-06
  -3.92700000000e-06
  -4.19100000000e-06
  -4.45700000000e-06
  -4.72500000000e-06
  -4.99300000000e-06
  -5.26100000000e-06
  -5.53000000000e-06
  -5.79900000000e-06
  -6.06700000000e-06
  -6.33400000000e-06
  -6.60100000000e-06
  -6.86600000000e-06
  -7.13000000000e-06
  -7.39200000000e-06
  -7.65200000000e-06
  -7.91100000000e-06
  -8.16800000000e-06
  -8.42200000000e-06
  -8.67400000000e-06
  -8.92300000000e-06
  -9.17000000000e-06
  -9.41500000000e-06
  -9.65700000000e-06
  -9.89600000000e-06
  -1.01300000000e-05
  -1.03600000000e-05
  -1.05900000000e-05
  -1.08200000000e-05
  -1.10500000000e-05
  -1.12700000000e-05
  -1.14900000000e-05
  -1.17000000000e-05
  -1.19100000000e-05
  -1.21200000000e-05
  -1.23200000000e-05
  -1.25300000000e-05
  -1.27200000000e-05
  -1.29200000000e-05
  -1.31100000000e-05
  -1.33000000000e-05
  -1.34900000000e-05
  -1.36700000000e-05
  -1.38500000000e-05
  -1.40200000000e-05
  -1.41900000000e-05
  -1.43600000000e-05
  -1.45300000000e-05
  -1.46900000000e-05
  -1.48500000000e-05
  -1.50100000000e-05
  -1.51600000000e-05
  -1.53100000000e-05
  -1.54600000000e-05
  -1.56000000000e-05
  -1.57400000000e-05
  -1.58800000000e-05
  -1.60100000000e-05
  -1.61400000000e-05
  -1.62700000000e-05
  -1.64000000000e-05
  -1.65200000000e-05
  -1.66400000000e-05
  -1.67600000000e-05
  -1.68700000000e-05
  -1.69900000000e-05
  -1.70900000000e-05
  -1.72000000000e-05
  -1.73000000000e-05
  -1.74100000000e-05
  -1.75000000000e-05
  -1.76000000000e-05
  -1.76900000000e-05
  -1.77800000000e-05
  -1.78700000000e-05
  -1.79600000000e-05
  -1.80400000000e-05
  -1.81200000000e-05
  -1.82000000000e-05
  -1.82800000000e-05
  -1.83500000000e-05
  -1.84300000000e-05
  -1.85000000000e-05
  -1.85700000000e-05
  -1.86300000000e-05
  -1.87000000000e-05
  -1.87600000000e-05
  -1.88200000000e-05
  -1.88800000000e-05
  -1.89300000000e-05
  -1.89900000000e-05
  -1.90400000000e-05
  -1.90900000000e-05
  -1.91400000000e-05
  -1.91900000000e-05
  -1.92300000000e-05
  -1.92700000000e-05
  -1.93200000000e-05
</dep>
<dep gm2 v>
  -3.44000000000e-06
  -1.91700000000e-03
  -1.89500000000e-01
  +1.91000000000e-01
  +7.16200000000e-08
  +7.00600000000e-08
  +6.92100000000e-08
  +6.80700000000e-08
  +6.67900000000e-08
  +6.56500000000e-08
  +6.45900000000e-08
  +6.38100000000e-08
  +6.23900000000e-08
  +6.11800000000e-08
  +6.04700000000e-08
  +5.94700000000e-08
  +5.81200000000e-08
  +5.73400000000e-08
  +5.62700000000e-08
  +5.52100000000e-08
  +5.44300000000e-08
  +5.32200000000e-08
  +5.23000000000e-08
  +5.14400000000e-08
  +5.05900000000e-08
  +4.93800000000e-08
  +4.88900000000e-08
  +4.76800000000e-08
  +4.67500000000e-08
  +4.61100000000e-08
  +4.51200000000e-08
  +4.41200000000e-08
  +4.35600000000e-08
  +4.25600000000e-08
  +4.17800000000e-08
  +4.09300000000e-08
  +4.02200000000e-08
  +3.94400000000e-08
  +3.85100000000e-08
  +3.79400000000e-08
  +3.70900000000e-08
  +3.63100000000e-08
  +3.54600000000e-08
  +3.51000000000e-08
  +3.40300000000e-08
  +3.36100000000e-08
  +3.26100000000e-08
  +3.22600000000e-08
  +3.13300000000e-08
  +3.07000000000e-08
  +3.02000000000e-08
  +2.94900000000e-08
  +2.87800000000e-08
  +2.82100000000e-08
  +2.76400000000e-08
  +2.70000000000e-08
  +2.63600000000e-08
  +2.58600000000e-08
  +2.50800000000e-08
  +2.49400000000e-08
  +2.39500000000e-08
  +2.36600000000e-08
  +2.30200000000e-08
  +2.26000000000e-08
  +2.18100000000e-08
  +2.16000000000e-08
  +2.09600000000e-08
  +2.04600000000e-08
  +1.98200000000e-08
  +1.98200000000e-08
  +1.88300000000e-08
  +1.87600000000e-08
  +1.80500000000e-08
  +1.76900000000e-08
  +1.72000000000e-08
  +1.69800000000e-08
  +1.63400000000e-08
  +1.59900000000e-08
  +1.54900000000e-08
  +1.54900000000e-08
  +1.45700000000e-08
  +1.45000000000e-08
  +1.40700000000e-08
  +1.37100000000e-08
  +1.32900000000e-08
  +1.30000000000e-08
  +1.25800000000e-08
  +1.23600000000e-08
  +1.19400000000e-08
  +1.18000000000e-08
  +1.10800000000e-08
  +1.10100000000e-08
  +1.08000000000e-08
  +1.05200000000e-08
  +9.87700000000e-09
  +1.02300000000e-08
  +9.23700000000e-09
  +9.37900000000e-09
  +9.23700000000e-09
  +8.66900000000e-09
  +8.59800000000e-09
  +8.52700000000e-09
  +8.02900000000e-09
  +8.02900000000e-09
  +7.88700000000e-09
  +7.81600000000e-09
  +7.81600000000e-09
  +7.67400000000e-09
  +8.02900000000e-09
  +8.02900000000e-09
  +8.59800000000e-09
  +9.23700000000e-09
  +1.00900000000e-08
  +1.18000000000e-08
  +1.35700000000e-08
  +1.64800000000e-08
  +2.06800000000e-08
  +2.56500000000e-08
  +3.36800000000e-08
  +4.37700000000e-08
  +5.83400000000e-08
  +7.80900000000e-08
  +1.05400000000e-07
  +1.42500000000e-07
  +1.93800000000e-07
  +2.64100000000e-07
  +3.60100000000e-07
  +4.92400000000e-07
  +6.73500000000e-07
  +9.21900000000e-07
  +1.26100000000e-06
  +1.72700000000e-06
  +2.36200000000e-06
  +3.22900000000e-06
  +4.41000000000e-06
  +6.01100000000e-06
  +8.17400000000e-06
  +1.10800000000e-05
  +1.49400000000e-05
  +2.00400000000e-05
  +2.66500000000e-05
  +3.50700000000e-05
  +4.55400000000e-05
  +5.81600000000e-05
  +7.28100000000e-05
  +8.90300000000e-05
  +1.06000000000e-04
  +1.22600000000e-04
  +1.37600000000e-04
  +1.49500000000e-04
  +1.57500000000e-04
  +1.60900000000e-04
  +1.59900000000e-04
  +1.54900000000e-04
  +1.46800000000e-04
  +1.36400000000e-04
  +1.24800000000e-04
  +1.12600000000e-04
  +1.00400000000e-04
  +8.86100000000e-05
  +7.75200000000e-05
  +6.72500000000e-05
  +5.78600000000e-05
  +4.93400000000e-05
  +4.16400000000e-05
  +3.46800000000e-05
  +2.84000000000e-05
  +2.27300000000e-05
  +1.76000000000e-05
  +1.29600000000e-05
  +8.74400000000e-06
  +4.91700000000e-06
  +1.43400000000e-06
  -1.74200000000e-06
  -4.64100000000e-06
  -7.29300000000e-06
  -9.71900000000e-06
  -1.19400000000e-05
  -1.39800000000e-05
  -1.58500000000e-05
  -1.75700000000e-05
  -1.91500000000e-05
  -2.06000000000e-05
  -2.19300000000e-05
  -2.31400000000e-05
  -2.42600000000e-05
  -2.52800000000e-05
  -2.62200000000e-05
  -2.70700000000e-05
  -2.78400000000e-05
  -2.85500000000e-05
  -2.91800000000e-05
  -2.97500000000e-05
  -3.02700000000e-05
  -3.07200000000e-05
  -3.11300000000e-05
  -3.14800000000e-05
  -3.17900000000e-05
  -3.20600000000e-05
  -3.22800000000e-05
  -3.24600000000e-05
  -3.26100000000e-05
  -3.27200000000e-05
  -3.28000000000e-05
  -3.28500000000e-05
  -3.28600000000e-05
  -3.28500000000e-05
  -3.28200000000e-05
  -3.27600000000e-05
  -3.26700000000e-05
  -3.25700000000e-05
  -3.24400000000e-05
  -3.22900000000e-05
  -3.21300000000e-05
  -3.19500000000e-05
  -3.17500000000e-05
  -3.15400000000e-05
  -3.13100000000e-05
  -3.10700000000e-05
  -3.08200000000e-05
  -3.05600000000e-05
  -3.02900000000e-05
  -3.00100000000e-05
  -2.97200000000e-05
  -2.94200000000e-05
  -2.91100000000e-05
  -2.88000000000e-05
  -2.84800000000e-05
  -2.81500000000e-05
  -2.78200000000e-05
  -2.74900000000e-05
  -2.71500000000e-05
  -2.68100000000e-05
  -2.64600000000e-05
  -2.61200000000e-05
  -2.57700000000e-05
  -2.54100000000e-05
  -2.50600000000e-05
  -2.47100000000e-05
  -2.43600000000e-05
  -2.40000000000e-05
  -2.36500000000e-05
  -2.32900000000e-05
  -2.29400000000e-05
  -2.25900000000e-05
  -2.22400000000e-05
  -2.18900000000e-05
  -2.15400000000e-05
  -2.11900000000e-05
  -2.08400000000e-05
  -2.05000000000e-05
  -2.01600000000e-05
  -1.98200000000e-05
  -1.94900000000e-05
  -1.91600000000e-05
  -1.88200000000e-05
  -1.85000000000e-05
  -1.81700000000e-05
  -1.78500000000e-05
  -1.75400000000e-05
  -1.72200000000e-05
</dep>
<dep gm v>
  -1.47000000000e-05
  -1.91000000000e-03
  -3.39800000000e-08
  -3.32600000000e-08
  -3.25600000000e-08
  -3.18700000000e-08
  -3.11900000000e-08
  -3.05200000000e-08
  -2.98600000000e-08
  -2.92200000000e-08
  -2.85800000000e-08
  -2.79600000000e-08
  -2.73400000000e-08
  -2.67400000000e-08
  -2.61400000000e-08
  -2.55600000000e-08
  -2.49900000000e-08
  -2.44300000000e-08
  -2.38700000000e-08
  -2.33300000000e-08
  -2.28000000000e-08
  -2.22800000000e-08
  -2.17600000000e-08
  -2.12600000000e-08
  -2.07600000000e-08
  -2.02700000000e-08
  -1.98000000000e-08
  -1.93300000000e-08
  -1.88700000000e-08
  -1.84200000000e-08
  -1.79700000000e-08
  -1.75400000000e-08
  -1.71100000000e-08
  -1.67000000000e-08
  -1.62900000000e-08
  -1.58800000000e-08
  -1.54900000000e-08
  -1.51000000000e-08
  -1.47300000000e-08
  -1.43500000000e-08
  -1.39900000000e-08
  -1.36400000000e-08
  -1.32900000000e-08
  -1.29500000000e-08
  -1.26100000000e-08
  -1.22800000000e-08
  -1.19600000000e-08
  -1.16500000000e-08
  -1.13400000000e-08
  -1.10400000000e-08
  -1.07400000000e-08
  -1.04600000000e-08
  -1.01700000000e-08
  -9.89700000000e-09
  -9.62700000000e-09
  -9.36400000000e-09
  -9.10500000000e-09
  -8.85400000000e-09
  -8.60500000000e-09
  -8.36500000000e-09
  -8.12900000000e-09
  -7.89800000000e-09
  -7.67200000000e-09
  -7.45400000000e-09
  -7.23800000000e-09
  -7.02900000000e-09
  -6.82400000000e-09
  -6.62600000000e-09
  -6.42800000000e-09
  -6.23900000000e-09
  -6.05200000000e-09
  -5.87100000000e-09
  -5.69400000000e-09
  -5.52200000000e-09
  -5.35300000000e-09
  -5.18900000000e-09
  -5.02900000000e-09
  -4.87400000000e-09
  -4.71900000000e-09
  -4.57400000000e-09
  -4.42900000000e-09
  -4.28800000000e-09
  -4.15100000000e-09
  -4.01800000000e-09
  -3.88800000000e-09
  -3.76200000000e-09
  -3.63900000000e-09
  -3.51900000000e-09
  -3.40100000000e-09
  -3.29100000000e-09
  -3.18000000000e-09
  -3.07200000000e-09
  -2.96700000000e-09
  -2.86800000000e-09
  -2.76600000000e-09
  -2.67400000000e-09
  -2.58000000000e-09
  -2.48800000000e-09
  -2.40100000000e-09
  -2.31500000000e-09
  -2.23000000000e-09
  -2.14900000000e-09
  -2.06900000000e-09
  -1.99000000000e-09
  -1.91200000000e-09
  -1.83400000000e-09
  -1.75700000000e-09
  -1.67700000000e-09
  -1.59700000000e-09
  -1.51100000000e-09
  -1.41800000000e-09
  -1.31700000000e-09
  -1.19900000000e-09
  -1.06400000000e-09
  -8.98800000000e-10
  -6.92100000000e-10
  -4.35600000000e-10
  -9.87700000000e-11
  +3.38900000000e-10
  +9.22300000000e-10
  +1.70300000000e-09
  +2.75700000000e-09
  +4.18200000000e-09
  +6.11900000000e-09
  +8.76000000000e-09
  +1.23600000000e-08
  +1.72900000000e-08
  +2.40200000000e-08
  +3.32400000000e-08
  +4.58500000000e-08
  +6.31200000000e-08
  +8.67400000000e-08
  +1.19000000000e-07
  +1.63100000000e-07
  +2.23200000000e-07
  +3.05000000000e-07
  +4.15800000000e-07
  +5.65200000000e-07
  +7.65600000000e-07
  +1.03200000000e-06
  +1.38300000000e-06
  +1.83800000000e-06
  +2.42000000000e-06
  +3.14800000000e-06
  +4.03800000000e-06
  +5.09900000000e-06
  +6.32500000000e-06
  +7.70100000000e-06
  +9.19600000000e-06
  +1.07700000000e-05
  +1.23800000000e-05
  +1.39800000000e-05
  +1.55300000000e-05
  +1.70000000000e-05
  +1.83600000000e-05
  +1.96100000000e-05
  +2.07400000000e-05
  +2.17400000000e-05
  +2.26300000000e-05
  +2.34000000000e-05
  +2.40700000000e-05
  +2.46500000000e-05
  +2.51400000000e-05
  +2.55600000000e-05
