<Qucs Dataset 0.0.18>
<indep v 261>
  -1.30000000000e+00
  -1.29000000000e+00
  -1.28000000000e+00
  -1.27000000000e+00
  -1.26000000000e+00
  -1.25000000000e+00
  -1.24000000000e+00
  -1.23000000000e+00
  -1.22000000000e+00
  -1.21000000000e+00
  -1.20000000000e+00
  -1.19000000000e+00
  -1.18000000000e+00
  -1.17000000000e+00
  -1.16000000000e+00
  -1.15000000000e+00
  -1.14000000000e+00
  -1.13000000000e+00
  -1.12000000000e+00
  -1.11000000000e+00
  -1.10000000000e+00
  -1.09000000000e+00
  -1.08000000000e+00
  -1.07000000000e+00
  -1.06000000000e+00
  -1.05000000000e+00
  -1.04000000000e+00
  -1.03000000000e+00
  -1.02000000000e+00
  -1.01000000000e+00
  -1.00000000000e+00
  -9.90000000000e-01
  -9.80000000000e-01
  -9.70000000000e-01
  -9.60000000000e-01
  -9.50000000000e-01
  -9.40000000000e-01
  -9.30000000000e-01
  -9.20000000000e-01
  -9.10000000000e-01
  -9.00000000000e-01
  -8.90000000000e-01
  -8.80000000000e-01
  -8.70000000000e-01
  -8.60000000000e-01
  -8.50000000000e-01
  -8.40000000000e-01
  -8.30000000000e-01
  -8.20000000000e-01
  -8.10000000000e-01
  -8.00000000000e-01
  -7.90000000000e-01
  -7.80000000000e-01
  -7.70000000000e-01
  -7.60000000000e-01
  -7.50000000000e-01
  -7.40000000000e-01
  -7.30000000000e-01
  -7.20000000000e-01
  -7.10000000000e-01
  -7.00000000000e-01
  -6.90000000000e-01
  -6.80000000000e-01
  -6.70000000000e-01
  -6.60000000000e-01
  -6.50000000000e-01
  -6.40000000000e-01
  -6.30000000000e-01
  -6.20000000000e-01
  -6.10000000000e-01
  -6.00000000000e-01
  -5.90000000000e-01
  -5.80000000000e-01
  -5.70000000000e-01
  -5.60000000000e-01
  -5.50000000000e-01
  -5.40000000000e-01
  -5.30000000000e-01
  -5.20000000000e-01
  -5.10000000000e-01
  -5.00000000000e-01
  -4.90000000000e-01
  -4.80000000000e-01
  -4.70000000000e-01
  -4.60000000000e-01
  -4.50000000000e-01
  -4.40000000000e-01
  -4.30000000000e-01
  -4.20000000000e-01
  -4.10000000000e-01
  -4.00000000000e-01
  -3.90000000000e-01
  -3.80000000000e-01
  -3.70000000000e-01
  -3.60000000000e-01
  -3.50000000000e-01
  -3.40000000000e-01
  -3.30000000000e-01
  -3.20000000000e-01
  -3.10000000000e-01
  -3.00000000000e-01
  -2.90000000000e-01
  -2.80000000000e-01
  -2.70000000000e-01
  -2.60000000000e-01
  -2.50000000000e-01
  -2.40000000000e-01
  -2.30000000000e-01
  -2.20000000000e-01
  -2.10000000000e-01
  -2.00000000000e-01
  -1.90000000000e-01
  -1.80000000000e-01
  -1.70000000000e-01
  -1.60000000000e-01
  -1.50000000000e-01
  -1.40000000000e-01
  -1.30000000000e-01
  -1.20000000000e-01
  -1.10000000000e-01
  -1.00000000000e-01
  -9.00000000000e-02
  -8.00000000000e-02
  -7.00000000000e-02
  -6.00000000000e-02
  -5.00000000000e-02
  -4.00000000000e-02
  -3.00000000000e-02
  -2.00000000000e-02
  -1.00000000000e-02
  +0.00000000000e+00
  +1.00000000000e-02
  +2.00000000000e-02
  +3.00000000000e-02
  +4.00000000000e-02
  +5.00000000000e-02
  +6.00000000000e-02
  +7.00000000000e-02
  +8.00000000000e-02
  +9.00000000000e-02
  +1.00000000000e-01
  +1.10000000000e-01
  +1.20000000000e-01
  +1.30000000000e-01
  +1.40000000000e-01
  +1.50000000000e-01
  +1.60000000000e-01
  +1.70000000000e-01
  +1.80000000000e-01
  +1.90000000000e-01
  +2.00000000000e-01
  +2.10000000000e-01
  +2.20000000000e-01
  +2.30000000000e-01
  +2.40000000000e-01
  +2.50000000000e-01
  +2.60000000000e-01
  +2.70000000000e-01
  +2.80000000000e-01
  +2.90000000000e-01
  +3.00000000000e-01
  +3.10000000000e-01
  +3.20000000000e-01
  +3.30000000000e-01
  +3.40000000000e-01
  +3.50000000000e-01
  +3.60000000000e-01
  +3.70000000000e-01
  +3.80000000000e-01
  +3.90000000000e-01
  +4.00000000000e-01
  +4.10000000000e-01
  +4.20000000000e-01
  +4.30000000000e-01
  +4.40000000000e-01
  +4.50000000000e-01
  +4.60000000000e-01
  +4.70000000000e-01
  +4.80000000000e-01
  +4.90000000000e-01
  +5.00000000000e-01
  +5.10000000000e-01
  +5.20000000000e-01
  +5.30000000000e-01
  +5.40000000000e-01
  +5.50000000000e-01
  +5.60000000000e-01
  +5.70000000000e-01
  +5.80000000000e-01
  +5.90000000000e-01
  +6.00000000000e-01
  +6.10000000000e-01
  +6.20000000000e-01
  +6.30000000000e-01
  +6.40000000000e-01
  +6.50000000000e-01
  +6.60000000000e-01
  +6.70000000000e-01
  +6.80000000000e-01
  +6.90000000000e-01
  +7.00000000000e-01
  +7.10000000000e-01
  +7.20000000000e-01
  +7.30000000000e-01
  +7.40000000000e-01
  +7.50000000000e-01
  +7.60000000000e-01
  +7.70000000000e-01
  +7.80000000000e-01
  +7.90000000000e-01
  +8.00000000000e-01
  +8.10000000000e-01
  +8.20000000000e-01
  +8.30000000000e-01
  +8.40000000000e-01
  +8.50000000000e-01
  +8.60000000000e-01
  +8.70000000000e-01
  +8.80000000000e-01
  +8.90000000000e-01
  +9.00000000000e-01
  +9.10000000000e-01
  +9.20000000000e-01
  +9.30000000000e-01
  +9.40000000000e-01
  +9.50000000000e-01
  +9.60000000000e-01
  +9.70000000000e-01
  +9.80000000000e-01
  +9.90000000000e-01
  +1.00000000000e+00
  +1.01000000000e+00
  +1.02000000000e+00
  +1.03000000000e+00
  +1.04000000000e+00
  +1.05000000000e+00
  +1.06000000000e+00
  +1.07000000000e+00
  +1.08000000000e+00
  +1.09000000000e+00
  +1.10000000000e+00
  +1.11000000000e+00
  +1.12000000000e+00
  +1.13000000000e+00
  +1.14000000000e+00
  +1.15000000000e+00
  +1.16000000000e+00
  +1.17000000000e+00
  +1.18000000000e+00
  +1.19000000000e+00
  +1.20000000000e+00
  +1.21000000000e+00
  +1.22000000000e+00
  +1.23000000000e+00
  +1.24000000000e+00
  +1.25000000000e+00
  +1.26000000000e+00
  +1.27000000000e+00
  +1.28000000000e+00
  +1.29000000000e+00
  +1.30000000000e+00
</indep>
<dep vd v>
  -1.33000000000e-08
  -1.29600000000e-08
  -1.26300000000e-08
  -1.23100000000e-08
  -1.19900000000e-08
  -1.16800000000e-08
  -1.13800000000e-08
  -1.10800000000e-08
  -1.08000000000e-08
  -1.05100000000e-08
  -1.02400000000e-08
  -9.96500000000e-09
  -9.70000000000e-09
  -9.44100000000e-09
  -9.18800000000e-09
  -8.94000000000e-09
  -8.69800000000e-09
  -8.46200000000e-09
  -8.23100000000e-09
  -8.00500000000e-09
  -7.78400000000e-09
  -7.56900000000e-09
  -7.35800000000e-09
  -7.15300000000e-09
  -6.95200000000e-09
  -6.75600000000e-09
  -6.56400000000e-09
  -6.37700000000e-09
  -6.19500000000e-09
  -6.01700000000e-09
  -5.84300000000e-09
  -5.67400000000e-09
  -5.50800000000e-09
  -5.34700000000e-09
  -5.19000000000e-09
  -5.03600000000e-09
  -4.88700000000e-09
  -4.74100000000e-09
  -4.59900000000e-09
  -4.46000000000e-09
  -4.32500000000e-09
  -4.19300000000e-09
  -4.06500000000e-09
  -3.94000000000e-09
  -3.81900000000e-09
  -3.70000000000e-09
  -3.58500000000e-09
  -3.47200000000e-09
  -3.36300000000e-09
  -3.25700000000e-09
  -3.15300000000e-09
  -3.05200000000e-09
  -2.95400000000e-09
  -2.85900000000e-09
  -2.76600000000e-09
  -2.67600000000e-09
  -2.58800000000e-09
  -2.50300000000e-09
  -2.42000000000e-09
  -2.34000000000e-09
  -2.26200000000e-09
  -2.18600000000e-09
  -2.11200000000e-09
  -2.04000000000e-09
  -1.97000000000e-09
  -1.90300000000e-09
  -1.83700000000e-09
  -1.77400000000e-09
  -1.71200000000e-09
  -1.65200000000e-09
  -1.59400000000e-09
  -1.53700000000e-09
  -1.48300000000e-09
  -1.43000000000e-09
  -1.37800000000e-09
  -1.32800000000e-09
  -1.28000000000e-09
  -1.23300000000e-09
  -1.18800000000e-09
  -1.14400000000e-09
  -1.10200000000e-09
  -1.06100000000e-09
  -1.02100000000e-09
  -9.82200000000e-10
  -9.45000000000e-10
  -9.08900000000e-10
  -8.74100000000e-10
  -8.40400000000e-10
  -8.07800000000e-10
  -7.76300000000e-10
  -7.45900000000e-10
  -7.16500000000e-10
  -6.88100000000e-10
  -6.60700000000e-10
  -6.34200000000e-10
  -6.08700000000e-10
  -5.84100000000e-10
  -5.60300000000e-10
  -5.37500000000e-10
  -5.15400000000e-10
  -4.94200000000e-10
  -4.73900000000e-10
  -4.54300000000e-10
  -4.35600000000e-10
  -4.17800000000e-10
  -4.00800000000e-10
  -3.84700000000e-10
  -3.69700000000e-10
  -3.55800000000e-10
  -3.43100000000e-10
  -3.32000000000e-10
  -3.22700000000e-10
  -3.15600000000e-10
  -3.11400000000e-10
  -3.10900000000e-10
  -3.15300000000e-10
  -3.26000000000e-10
  -3.45300000000e-10
  -3.76100000000e-10
  -4.22300000000e-10
  -4.89400000000e-10
  -5.84900000000e-10
  -7.18900000000e-10
  -9.05300000000e-10
  -1.16300000000e-09
  -1.51800000000e-09
  -2.00600000000e-09
  -2.67400000000e-09
  -3.58900000000e-09
  -4.83900000000e-09
  -6.54400000000e-09
  -8.86700000000e-09
  -1.20300000000e-08
  -1.63200000000e-08
  -2.21300000000e-08
  -2.99600000000e-08
  -4.04800000000e-08
  -5.45200000000e-08
  -7.31000000000e-08
  -9.74800000000e-08
  -1.29100000000e-07
  -1.69500000000e-07
  -2.20400000000e-07
  -2.83300000000e-07
  -3.59800000000e-07
  -4.51100000000e-07
  -5.57900000000e-07
  -6.80600000000e-07
  -8.19200000000e-07
  -9.73200000000e-07
  -1.14200000000e-06
  -1.32400000000e-06
  -1.51900000000e-06
  -1.72600000000e-06
  -1.94200000000e-06
  -2.16800000000e-06
  -2.40200000000e-06
  -2.64300000000e-06
  -2.89000000000e-06
  -3.14200000000e-06
  -3.39800000000e-06
  -3.65900000000e-06
  -3.92200000000e-06
  -4.18800000000e-06
  -4.45600000000e-06
  -4.72600000000e-06
  -4.99700000000e-06
  -5.26800000000e-06
  -5.54000000000e-06
  -5.81200000000e-06
  -6.08400000000e-06
  -6.35500000000e-06
  -6.62500000000e-06
  -6.89500000000e-06
  -7.16300000000e-06
  -7.42900000000e-06
  -7.69400000000e-06
  -7.95800000000e-06
  -8.21900000000e-06
  -8.47800000000e-06
  -8.73500000000e-06
  -8.99000000000e-06
  -9.24200000000e-06
  -9.49200000000e-06
  -9.73900000000e-06
  -9.98300000000e-06
  -1.02200000000e-05
  -1.04600000000e-05
  -1.07000000000e-05
  -1.09300000000e-05
  -1.11600000000e-05
  -1.13900000000e-05
  -1.16100000000e-05
  -1.18300000000e-05
  -1.20500000000e-05
  -1.22600000000e-05
  -1.24700000000e-05
  -1.26800000000e-05
  -1.28800000000e-05
  -1.30800000000e-05
  -1.32800000000e-05
  -1.34800000000e-05
  -1.36700000000e-05
  -1.38500000000e-05
  -1.40400000000e-05
  -1.42200000000e-05
  -1.44000000000e-05
  -1.45700000000e-05
  -1.47400000000e-05
  -1.49100000000e-05
  -1.50700000000e-05
  -1.52300000000e-05
  -1.53900000000e-05
  -1.55400000000e-05
  -1.57000000000e-05
  -1.58400000000e-05
  -1.59900000000e-05
  -1.61300000000e-05
  -1.62700000000e-05
  -1.64100000000e-05
  -1.65400000000e-05
  -1.66700000000e-05
  -1.67900000000e-05
  -1.69200000000e-05
  -1.70400000000e-05
  -1.71600000000e-05
  -1.72700000000e-05
  -1.73900000000e-05
  -1.75000000000e-05
  -1.76000000000e-05
  -1.77100000000e-05
  -1.78100000000e-05
  -1.79100000000e-05
  -1.80000000000e-05
  -1.81000000000e-05
  -1.81900000000e-05
  -1.82800000000e-05
  -1.83600000000e-05
  -1.84500000000e-05
  -1.85300000000e-05
  -1.86100000000e-05
  -1.86900000000e-05
  -1.87600000000e-05
  -1.88300000000e-05
  -1.89000000000e-05
  -1.89700000000e-05
  -1.90400000000e-05
  -1.91000000000e-05
  -1.91600000000e-05
  -1.92200000000e-05
  -1.92800000000e-05
  -1.93400000000e-05
  -1.93900000000e-05
  -1.94400000000e-05
  -1.94900000000e-05
  -1.95400000000e-05
  -1.95900000000e-05
  -1.96300000000e-05
  -1.96800000000e-05
  -1.97200000000e-05
  -1.97600000000e-05
</dep>
<dep gm2 v>
  -3.27700000000e-06
  -1.92800000000e-03
  -1.93700000000e-01
  +1.95200000000e-01
  +7.06300000000e-08
  +6.97000000000e-08
  +6.83500000000e-08
  +6.75000000000e-08
  +6.59400000000e-08
  +6.53000000000e-08
  +6.40900000000e-08
  +6.28800000000e-08
  +6.18200000000e-08
  +6.08900000000e-08
  +5.97600000000e-08
  +5.86900000000e-08
  +5.77000000000e-08
  +5.69100000000e-08
  +5.55600000000e-08
  +5.48500000000e-08
  +5.37900000000e-08
  +5.27200000000e-08
  +5.18700000000e-08
  +5.09500000000e-08
  +5.00200000000e-08
  +4.90300000000e-08
  +4.83200000000e-08
  +4.71800000000e-08
  +4.65400000000e-08
  +4.54700000000e-08
  +4.46200000000e-08
  +4.39100000000e-08
  +4.30600000000e-08
  +4.22100000000e-08
  +4.12800000000e-08
  +4.06400000000e-08
  +3.97200000000e-08
  +3.91500000000e-08
  +3.81600000000e-08
  +3.74500000000e-08
  +3.67400000000e-08
  +3.61700000000e-08
  +3.49600000000e-08
  +3.48900000000e-08
  +3.37500000000e-08
  +3.29700000000e-08
  +3.26100000000e-08
  +3.16900000000e-08
  +3.11900000000e-08
  +3.05500000000e-08
  +2.97000000000e-08
  +2.92700000000e-08
  +2.84200000000e-08
  +2.81400000000e-08
  +2.72100000000e-08
  +2.67900000000e-08
  +2.61500000000e-08
  +2.55100000000e-08
  +2.50800000000e-08
  +2.43700000000e-08
  +2.39500000000e-08
  +2.34500000000e-08
  +2.26000000000e-08
  +2.24500000000e-08
  +2.18100000000e-08
  +2.11700000000e-08
  +2.06800000000e-08
  +2.03900000000e-08
  +1.99000000000e-08
  +1.93300000000e-08
  +1.88300000000e-08
  +1.84000000000e-08
  +1.78300000000e-08
  +1.76900000000e-08
  +1.70500000000e-08
  +1.67000000000e-08
  +1.62700000000e-08
  +1.58500000000e-08
  +1.54200000000e-08
  +1.50600000000e-08
  +1.46400000000e-08
  +1.42800000000e-08
  +1.39300000000e-08
  +1.35000000000e-08
  +1.33600000000e-08
  +1.27900000000e-08
  +1.25800000000e-08
  +1.20800000000e-08
  +1.19400000000e-08
  +1.14400000000e-08
  +1.13000000000e-08
  +1.10100000000e-08
  +1.04400000000e-08
  +1.04400000000e-08
  +9.87700000000e-09
  +1.00200000000e-08
  +9.37900000000e-09
  +9.37900000000e-09
  +8.95300000000e-09
  +8.95300000000e-09
  +8.52700000000e-09
  +8.52700000000e-09
  +8.31300000000e-09
  +8.38400000000e-09
  +8.17100000000e-09
  +8.24200000000e-09
  +8.59800000000e-09
  +8.74000000000e-09
  +9.30800000000e-09
  +1.00200000000e-08
  +1.12300000000e-08
  +1.28600000000e-08
  +1.49200000000e-08
  +1.84000000000e-08
  +2.26000000000e-08
  +2.85600000000e-08
  +3.70900000000e-08
  +4.83900000000e-08
  +6.38800000000e-08
  +8.54800000000e-08
  +1.14500000000e-07
  +1.54500000000e-07
  +2.09300000000e-07
  +2.83500000000e-07
  +3.85500000000e-07
  +5.24300000000e-07
  +7.14200000000e-07
  +9.72700000000e-07
  +1.32600000000e-06
  +1.80700000000e-06
  +2.46100000000e-06
  +3.35000000000e-06
  +4.55600000000e-06
  +6.18300000000e-06
  +8.37200000000e-06
  +1.13000000000e-05
  +1.51800000000e-05
  +2.02600000000e-05
  +2.68400000000e-05
  +3.51800000000e-05
  +4.55000000000e-05
  +5.79000000000e-05
  +7.22400000000e-05
  +8.80900000000e-05
  +1.04700000000e-04
  +1.20900000000e-04
  +1.35600000000e-04
  +1.47400000000e-04
  +1.55400000000e-04
  +1.59200000000e-04
  +1.58600000000e-04
  +1.54200000000e-04
  +1.46700000000e-04
  +1.37000000000e-04
  +1.26000000000e-04
  +1.14300000000e-04
  +1.02600000000e-04
  +9.11400000000e-05
  +8.02700000000e-05
  +7.01400000000e-05
  +6.08300000000e-05
  +5.23400000000e-05
  +4.46200000000e-05
  +3.76300000000e-05
  +3.12900000000e-05
  +2.55500000000e-05
  +2.03300000000e-05
  +1.55900000000e-05
  +1.12800000000e-05
  +7.33900000000e-06
  +3.74400000000e-06
  +4.54200000000e-07
  -2.56000000000e-06
  -5.32600000000e-06
  -7.86700000000e-06
  -1.02000000000e-05
  -1.23600000000e-05
  -1.43400000000e-05
  -1.61600000000e-05
  -1.78500000000e-05
  -1.94000000000e-05
  -2.08300000000e-05
  -2.21400000000e-05
  -2.33600000000e-05
  -2.44700000000e-05
  -2.54900000000e-05
  -2.64300000000e-05
  -2.72900000000e-05
  -2.80800000000e-05
  -2.87900000000e-05
  -2.94400000000e-05
  -3.00200000000e-05
  -3.05500000000e-05
  -3.10200000000e-05
  -3.14400000000e-05
  -3.18100000000e-05
  -3.21300000000e-05
  -3.24100000000e-05
  -3.26500000000e-05
  -3.28500000000e-05
  -3.30100000000e-05
  -3.31300000000e-05
  -3.32200000000e-05
  -3.32800000000e-05
  -3.33100000000e-05
  -3.33100000000e-05
  -3.32800000000e-05
  -3.32300000000e-05
  -3.31600000000e-05
  -3.30600000000e-05
  -3.29400000000e-05
  -3.28000000000e-05
  -3.26400000000e-05
  -3.24600000000e-05
  -3.22700000000e-05
  -3.20600000000e-05
  -3.18400000000e-05
  -3.16000000000e-05
  -3.13500000000e-05
  -3.10900000000e-05
  -3.08200000000e-05
  -3.05400000000e-05
  -3.02500000000e-05
  -2.99500000000e-05
  -2.96400000000e-05
  -2.93200000000e-05
  -2.90000000000e-05
  -2.86700000000e-05
  -2.83400000000e-05
  -2.80000000000e-05
  -2.76600000000e-05
  -2.73100000000e-05
  -2.69700000000e-05
  -2.66100000000e-05
  -2.62600000000e-05
  -2.59000000000e-05
  -2.55400000000e-05
  -2.51800000000e-05
  -2.48200000000e-05
  -2.44600000000e-05
  -2.41000000000e-05
  -2.37400000000e-05
  -2.33800000000e-05
  -2.30200000000e-05
  -2.26600000000e-05
  -2.23100000000e-05
  -2.19500000000e-05
  -2.16000000000e-05
  -2.12400000000e-05
  -2.08900000000e-05
  -2.05500000000e-05
  -2.02000000000e-05
  -1.98600000000e-05
  -1.95200000000e-05
  -1.91800000000e-05
  -1.88500000000e-05
  -1.85100000000e-05
  -1.81800000000e-05
  -1.78600000000e-05
  -1.75400000000e-05
  -1.72200000000e-05
</dep>
<dep gm v>
  -1.50200000000e-05
  -1.95200000000e-03
  -3.36500000000e-08
  -3.29500000000e-08
  -3.22500000000e-08
  -3.15700000000e-08
  -3.08900000000e-08
  -3.02300000000e-08
  -2.95800000000e-08
  -2.89400000000e-08
  -2.83100000000e-08
  -2.76900000000e-08
  -2.70800000000e-08
  -2.64800000000e-08
  -2.59000000000e-08
  -2.53200000000e-08
  -2.47500000000e-08
  -2.42000000000e-08
  -2.36500000000e-08
  -2.31100000000e-08
  -2.25800000000e-08
  -2.20600000000e-08
  -2.15500000000e-08
  -2.10500000000e-08
  -2.05600000000e-08
  -2.00800000000e-08
  -1.96100000000e-08
  -1.91400000000e-08
  -1.86900000000e-08
  -1.82400000000e-08
  -1.78000000000e-08
  -1.73700000000e-08
  -1.69500000000e-08
  -1.65400000000e-08
  -1.61300000000e-08
  -1.57300000000e-08
  -1.53400000000e-08
  -1.49600000000e-08
  -1.45900000000e-08
  -1.42200000000e-08
  -1.38600000000e-08
  -1.35100000000e-08
  -1.31600000000e-08
  -1.28200000000e-08
  -1.24900000000e-08
  -1.21700000000e-08
  -1.18500000000e-08
  -1.15400000000e-08
  -1.12300000000e-08
  -1.09300000000e-08
  -1.06400000000e-08
  -1.03600000000e-08
  -1.00800000000e-08
  -9.80300000000e-09
  -9.53500000000e-09
  -9.27400000000e-09
  -9.01900000000e-09
  -8.76800000000e-09
  -8.52400000000e-09
  -8.28500000000e-09
  -8.05000000000e-09
  -7.82400000000e-09
  -7.60000000000e-09
  -7.38200000000e-09
  -7.17000000000e-09
  -6.96300000000e-09
  -6.75900000000e-09
  -6.56000000000e-09
  -6.36700000000e-09
  -6.17900000000e-09
  -5.99500000000e-09
  -5.81700000000e-09
  -5.64000000000e-09
  -5.46900000000e-09
  -5.30200000000e-09
  -5.13900000000e-09
  -4.98100000000e-09
  -4.82700000000e-09
  -4.67600000000e-09
  -4.53000000000e-09
  -4.38700000000e-09
  -4.24800000000e-09
  -4.11300000000e-09
  -3.97900000000e-09
  -3.85100000000e-09
  -3.72500000000e-09
  -3.60500000000e-09
  -3.48500000000e-09
  -3.37100000000e-09
  -3.25800000000e-09
  -3.14800000000e-09
  -3.04300000000e-09
  -2.93900000000e-09
  -2.84000000000e-09
  -2.74000000000e-09
  -2.64600000000e-09
  -2.55200000000e-09
  -2.46300000000e-09
  -2.37300000000e-09
  -2.28800000000e-09
  -2.20300000000e-09
  -2.12000000000e-09
  -2.03600000000e-09
  -1.95400000000e-09
  -1.87200000000e-09
  -1.78600000000e-09
  -1.69800000000e-09
  -1.60500000000e-09
  -1.50500000000e-09
  -1.39300000000e-09
  -1.26400000000e-09
  -1.11500000000e-09
  -9.30800000000e-10
  -7.04900000000e-10
  -4.19200000000e-10
  -4.83200000000e-11
  +4.35600000000e-10
  +1.07400000000e-09
  +1.92900000000e-09
  +3.07500000000e-09
  +4.61900000000e-09
  +6.71200000000e-09
  +9.54700000000e-09
  +1.34000000000e-08
  +1.86400000000e-08
  +2.57900000000e-08
  +3.55100000000e-08
  +4.87700000000e-08
  +6.68400000000e-08
  +9.14500000000e-08
  +1.25000000000e-07
  +1.70500000000e-07
  +2.32300000000e-07
  +3.16100000000e-07
  +4.29100000000e-07
  +5.80800000000e-07
  +7.83500000000e-07
  +1.05200000000e-06
  +1.40400000000e-06
  +1.85900000000e-06
  +2.43800000000e-06
  +3.16000000000e-06
  +4.04100000000e-06
  +5.08800000000e-06
  +6.29700000000e-06
  +7.65200000000e-06
  +9.12600000000e-06
  +1.06800000000e-05
  +1.22700000000e-05
  +1.38600000000e-05
  +1.54000000000e-05
  +1.68700000000e-05
  +1.82400000000e-05
  +1.95000000000e-05
  +2.06400000000e-05
  +2.16700000000e-05
  +2.25800000000e-05
  +2.33800000000e-05
  +2.40800000000e-05
  +2.46900000000e-05
  +2.52100000000e-05
  +2.56600000000e-05
  +2.60400000000e-05
  +2.63500000000e-05
