<Qucs Dataset 0.0.18>
<indep v 261>
  -1.30000000000e+00
  -1.29000000000e+00
  -1.28000000000e+00
  -1.27000000000e+00
  -1.26000000000e+00
  -1.25000000000e+00
  -1.24000000000e+00
  -1.23000000000e+00
  -1.22000000000e+00
  -1.21000000000e+00
  -1.20000000000e+00
  -1.19000000000e+00
  -1.18000000000e+00
  -1.17000000000e+00
  -1.16000000000e+00
  -1.15000000000e+00
  -1.14000000000e+00
  -1.13000000000e+00
  -1.12000000000e+00
  -1.11000000000e+00
  -1.10000000000e+00
  -1.09000000000e+00
  -1.08000000000e+00
  -1.07000000000e+00
  -1.06000000000e+00
  -1.05000000000e+00
  -1.04000000000e+00
  -1.03000000000e+00
  -1.02000000000e+00
  -1.01000000000e+00
  -1.00000000000e+00
  -9.90000000000e-01
  -9.80000000000e-01
  -9.70000000000e-01
  -9.60000000000e-01
  -9.50000000000e-01
  -9.40000000000e-01
  -9.30000000000e-01
  -9.20000000000e-01
  -9.10000000000e-01
  -9.00000000000e-01
  -8.90000000000e-01
  -8.80000000000e-01
  -8.70000000000e-01
  -8.60000000000e-01
  -8.50000000000e-01
  -8.40000000000e-01
  -8.30000000000e-01
  -8.20000000000e-01
  -8.10000000000e-01
  -8.00000000000e-01
  -7.90000000000e-01
  -7.80000000000e-01
  -7.70000000000e-01
  -7.60000000000e-01
  -7.50000000000e-01
  -7.40000000000e-01
  -7.30000000000e-01
  -7.20000000000e-01
  -7.10000000000e-01
  -7.00000000000e-01
  -6.90000000000e-01
  -6.80000000000e-01
  -6.70000000000e-01
  -6.60000000000e-01
  -6.50000000000e-01
  -6.40000000000e-01
  -6.30000000000e-01
  -6.20000000000e-01
  -6.10000000000e-01
  -6.00000000000e-01
  -5.90000000000e-01
  -5.80000000000e-01
  -5.70000000000e-01
  -5.60000000000e-01
  -5.50000000000e-01
  -5.40000000000e-01
  -5.30000000000e-01
  -5.20000000000e-01
  -5.10000000000e-01
  -5.00000000000e-01
  -4.90000000000e-01
  -4.80000000000e-01
  -4.70000000000e-01
  -4.60000000000e-01
  -4.50000000000e-01
  -4.40000000000e-01
  -4.30000000000e-01
  -4.20000000000e-01
  -4.10000000000e-01
  -4.00000000000e-01
  -3.90000000000e-01
  -3.80000000000e-01
  -3.70000000000e-01
  -3.60000000000e-01
  -3.50000000000e-01
  -3.40000000000e-01
  -3.30000000000e-01
  -3.20000000000e-01
  -3.10000000000e-01
  -3.00000000000e-01
  -2.90000000000e-01
  -2.80000000000e-01
  -2.70000000000e-01
  -2.60000000000e-01
  -2.50000000000e-01
  -2.40000000000e-01
  -2.30000000000e-01
  -2.20000000000e-01
  -2.10000000000e-01
  -2.00000000000e-01
  -1.90000000000e-01
  -1.80000000000e-01
  -1.70000000000e-01
  -1.60000000000e-01
  -1.50000000000e-01
  -1.40000000000e-01
  -1.30000000000e-01
  -1.20000000000e-01
  -1.10000000000e-01
  -1.00000000000e-01
  -9.00000000000e-02
  -8.00000000000e-02
  -7.00000000000e-02
  -6.00000000000e-02
  -5.00000000000e-02
  -4.00000000000e-02
  -3.00000000000e-02
  -2.00000000000e-02
  -1.00000000000e-02
  +0.00000000000e+00
  +1.00000000000e-02
  +2.00000000000e-02
  +3.00000000000e-02
  +4.00000000000e-02
  +5.00000000000e-02
  +6.00000000000e-02
  +7.00000000000e-02
  +8.00000000000e-02
  +9.00000000000e-02
  +1.00000000000e-01
  +1.10000000000e-01
  +1.20000000000e-01
  +1.30000000000e-01
  +1.40000000000e-01
  +1.50000000000e-01
  +1.60000000000e-01
  +1.70000000000e-01
  +1.80000000000e-01
  +1.90000000000e-01
  +2.00000000000e-01
  +2.10000000000e-01
  +2.20000000000e-01
  +2.30000000000e-01
  +2.40000000000e-01
  +2.50000000000e-01
  +2.60000000000e-01
  +2.70000000000e-01
  +2.80000000000e-01
  +2.90000000000e-01
  +3.00000000000e-01
  +3.10000000000e-01
  +3.20000000000e-01
  +3.30000000000e-01
  +3.40000000000e-01
  +3.50000000000e-01
  +3.60000000000e-01
  +3.70000000000e-01
  +3.80000000000e-01
  +3.90000000000e-01
  +4.00000000000e-01
  +4.10000000000e-01
  +4.20000000000e-01
  +4.30000000000e-01
  +4.40000000000e-01
  +4.50000000000e-01
  +4.60000000000e-01
  +4.70000000000e-01
  +4.80000000000e-01
  +4.90000000000e-01
  +5.00000000000e-01
  +5.10000000000e-01
  +5.20000000000e-01
  +5.30000000000e-01
  +5.40000000000e-01
  +5.50000000000e-01
  +5.60000000000e-01
  +5.70000000000e-01
  +5.80000000000e-01
  +5.90000000000e-01
  +6.00000000000e-01
  +6.10000000000e-01
  +6.20000000000e-01
  +6.30000000000e-01
  +6.40000000000e-01
  +6.50000000000e-01
  +6.60000000000e-01
  +6.70000000000e-01
  +6.80000000000e-01
  +6.90000000000e-01
  +7.00000000000e-01
  +7.10000000000e-01
  +7.20000000000e-01
  +7.30000000000e-01
  +7.40000000000e-01
  +7.50000000000e-01
  +7.60000000000e-01
  +7.70000000000e-01
  +7.80000000000e-01
  +7.90000000000e-01
  +8.00000000000e-01
  +8.10000000000e-01
  +8.20000000000e-01
  +8.30000000000e-01
  +8.40000000000e-01
  +8.50000000000e-01
  +8.60000000000e-01
  +8.70000000000e-01
  +8.80000000000e-01
  +8.90000000000e-01
  +9.00000000000e-01
  +9.10000000000e-01
  +9.20000000000e-01
  +9.30000000000e-01
  +9.40000000000e-01
  +9.50000000000e-01
  +9.60000000000e-01
  +9.70000000000e-01
  +9.80000000000e-01
  +9.90000000000e-01
  +1.00000000000e+00
  +1.01000000000e+00
  +1.02000000000e+00
  +1.03000000000e+00
  +1.04000000000e+00
  +1.05000000000e+00
  +1.06000000000e+00
  +1.07000000000e+00
  +1.08000000000e+00
  +1.09000000000e+00
  +1.10000000000e+00
  +1.11000000000e+00
  +1.12000000000e+00
  +1.13000000000e+00
  +1.14000000000e+00
  +1.15000000000e+00
  +1.16000000000e+00
  +1.17000000000e+00
  +1.18000000000e+00
  +1.19000000000e+00
  +1.20000000000e+00
  +1.21000000000e+00
  +1.22000000000e+00
  +1.23000000000e+00
  +1.24000000000e+00
  +1.25000000000e+00
  +1.26000000000e+00
  +1.27000000000e+00
  +1.28000000000e+00
  +1.29000000000e+00
  +1.30000000000e+00
</indep>
<dep vd v>
  -1.34200000000e-08
  -1.30800000000e-08
  -1.27500000000e-08
  -1.24200000000e-08
  -1.21000000000e-08
  -1.17900000000e-08
  -1.14900000000e-08
  -1.11900000000e-08
  -1.09000000000e-08
  -1.06100000000e-08
  -1.03300000000e-08
  -1.00600000000e-08
  -9.79000000000e-09
  -9.52900000000e-09
  -9.27300000000e-09
  -9.02400000000e-09
  -8.77900000000e-09
  -8.54100000000e-09
  -8.30700000000e-09
  -8.08000000000e-09
  -7.85700000000e-09
  -7.63900000000e-09
  -7.42700000000e-09
  -7.21900000000e-09
  -7.01700000000e-09
  -6.81900000000e-09
  -6.62500000000e-09
  -6.43700000000e-09
  -6.25300000000e-09
  -6.07300000000e-09
  -5.89800000000e-09
  -5.72700000000e-09
  -5.56000000000e-09
  -5.39700000000e-09
  -5.23800000000e-09
  -5.08300000000e-09
  -4.93200000000e-09
  -4.78500000000e-09
  -4.64200000000e-09
  -4.50200000000e-09
  -4.36500000000e-09
  -4.23200000000e-09
  -4.10300000000e-09
  -3.97700000000e-09
  -3.85400000000e-09
  -3.73500000000e-09
  -3.61800000000e-09
  -3.50500000000e-09
  -3.39400000000e-09
  -3.28700000000e-09
  -3.18300000000e-09
  -3.08100000000e-09
  -2.98200000000e-09
  -2.88600000000e-09
  -2.79200000000e-09
  -2.70100000000e-09
  -2.61300000000e-09
  -2.52600000000e-09
  -2.44300000000e-09
  -2.36200000000e-09
  -2.28300000000e-09
  -2.20600000000e-09
  -2.13100000000e-09
  -2.05900000000e-09
  -1.98900000000e-09
  -1.92100000000e-09
  -1.85400000000e-09
  -1.79000000000e-09
  -1.72800000000e-09
  -1.66700000000e-09
  -1.60800000000e-09
  -1.55200000000e-09
  -1.49600000000e-09
  -1.44300000000e-09
  -1.39100000000e-09
  -1.34100000000e-09
  -1.29200000000e-09
  -1.24500000000e-09
  -1.19900000000e-09
  -1.15500000000e-09
  -1.11200000000e-09
  -1.07000000000e-09
  -1.03000000000e-09
  -9.91400000000e-10
  -9.53800000000e-10
  -9.17400000000e-10
  -8.82200000000e-10
  -8.48200000000e-10
  -8.15300000000e-10
  -7.83500000000e-10
  -7.52800000000e-10
  -7.23100000000e-10
  -6.94500000000e-10
  -6.66800000000e-10
  -6.40100000000e-10
  -6.14300000000e-10
  -5.89500000000e-10
  -5.65500000000e-10
  -5.42300000000e-10
  -5.20100000000e-10
  -4.98600000000e-10
  -4.78000000000e-10
  -4.58200000000e-10
  -4.39100000000e-10
  -4.20900000000e-10
  -4.03500000000e-10
  -3.86900000000e-10
  -3.71300000000e-10
  -3.56600000000e-10
  -3.42900000000e-10
  -3.30500000000e-10
  -3.19500000000e-10
  -3.10200000000e-10
  -3.03100000000e-10
  -2.98600000000e-10
  -2.97600000000e-10
  -3.01200000000e-10
  -3.10800000000e-10
  -3.28500000000e-10
  -3.57000000000e-10
  -4.00200000000e-10
  -4.63300000000e-10
  -5.53300000000e-10
  -6.80200000000e-10
  -8.57300000000e-10
  -1.10300000000e-09
  -1.44200000000e-09
  -1.90900000000e-09
  -2.55100000000e-09
  -3.43100000000e-09
  -4.63600000000e-09
  -6.28500000000e-09
  -8.53700000000e-09
  -1.16100000000e-08
  -1.57900000000e-08
  -2.14600000000e-08
  -2.91200000000e-08
  -3.94400000000e-08
  -5.32400000000e-08
  -7.15500000000e-08
  -9.56300000000e-08
  -1.26900000000e-07
  -1.67000000000e-07
  -2.17600000000e-07
  -2.80300000000e-07
  -3.56700000000e-07
  -4.47800000000e-07
  -5.54600000000e-07
  -6.77500000000e-07
  -8.16200000000e-07
  -9.70500000000e-07
  -1.13900000000e-06
  -1.32200000000e-06
  -1.51700000000e-06
  -1.72400000000e-06
  -1.94100000000e-06
  -2.16700000000e-06
  -2.40100000000e-06
  -2.64100000000e-06
  -2.88800000000e-06
  -3.14000000000e-06
  -3.39600000000e-06
  -3.65500000000e-06
  -3.91800000000e-06
  -4.18300000000e-06
  -4.45000000000e-06
  -4.71900000000e-06
  -4.98800000000e-06
  -5.25800000000e-06
  -5.52800000000e-06
  -5.79900000000e-06
  -6.06900000000e-06
  -6.33800000000e-06
  -6.60600000000e-06
  -6.87400000000e-06
  -7.14000000000e-06
  -7.40400000000e-06
  -7.66700000000e-06
  -7.92800000000e-06
  -8.18700000000e-06
  -8.44300000000e-06
  -8.69800000000e-06
  -8.95000000000e-06
  -9.20000000000e-06
  -9.44700000000e-06
  -9.69100000000e-06
  -9.93300000000e-06
  -1.01700000000e-05
  -1.04100000000e-05
  -1.06400000000e-05
  -1.08700000000e-05
  -1.11000000000e-05
  -1.13200000000e-05
  -1.15400000000e-05
  -1.17600000000e-05
  -1.19700000000e-05
  -1.21800000000e-05
  -1.23900000000e-05
  -1.26000000000e-05
  -1.28000000000e-05
  -1.30000000000e-05
  -1.31900000000e-05
  -1.33800000000e-05
  -1.35700000000e-05
  -1.37500000000e-05
  -1.39400000000e-05
  -1.41100000000e-05
  -1.42900000000e-05
  -1.44600000000e-05
  -1.46300000000e-05
  -1.47900000000e-05
  -1.49500000000e-05
  -1.51100000000e-05
  -1.52700000000e-05
  -1.54200000000e-05
  -1.55700000000e-05
  -1.57200000000e-05
  -1.58600000000e-05
  -1.60000000000e-05
  -1.61400000000e-05
  -1.62700000000e-05
  -1.64000000000e-05
  -1.65300000000e-05
  -1.66500000000e-05
  -1.67700000000e-05
  -1.68900000000e-05
  -1.70100000000e-05
  -1.71200000000e-05
  -1.72300000000e-05
  -1.73400000000e-05
  -1.74500000000e-05
  -1.75500000000e-05
  -1.76500000000e-05
  -1.77500000000e-05
  -1.78400000000e-05
  -1.79300000000e-05
  -1.80200000000e-05
  -1.81100000000e-05
  -1.82000000000e-05
  -1.82800000000e-05
  -1.83600000000e-05
  -1.84400000000e-05
  -1.85100000000e-05
  -1.85900000000e-05
  -1.86600000000e-05
  -1.87300000000e-05
  -1.88000000000e-05
  -1.88600000000e-05
  -1.89200000000e-05
  -1.89800000000e-05
  -1.90400000000e-05
  -1.91000000000e-05
  -1.91600000000e-05
  -1.92100000000e-05
  -1.92600000000e-05
  -1.93100000000e-05
  -1.93600000000e-05
  -1.94000000000e-05
  -1.94500000000e-05
  -1.94900000000e-05
  -1.95300000000e-05
</dep>
<dep gm2 v>
  -3.36100000000e-06
  -1.92300000000e-03
  -1.91500000000e-01
  +1.93000000000e-01
  +7.13400000000e-08
  +7.04900000000e-08
  +6.89200000000e-08
  +6.80000000000e-08
  +6.67900000000e-08
  +6.58700000000e-08
  +6.44500000000e-08
  +6.35900000000e-08
  +6.24600000000e-08
  +6.13200000000e-08
  +6.04000000000e-08
  +5.94000000000e-08
  +5.81900000000e-08
  +5.73400000000e-08
  +5.60600000000e-08
  +5.53500000000e-08
  +5.42100000000e-08
  +5.35000000000e-08
  +5.21500000000e-08
  +5.13700000000e-08
  +5.05900000000e-08
  +4.95200000000e-08
  +4.86700000000e-08
  +4.76800000000e-08
  +4.68200000000e-08
  +4.60400000000e-08
  +4.51200000000e-08
  +4.42700000000e-08
  +4.34100000000e-08
  +4.24200000000e-08
  +4.19900000000e-08
  +4.09300000000e-08
  +4.00000000000e-08
  +3.95100000000e-08
  +3.85800000000e-08
  +3.77300000000e-08
  +3.73000000000e-08
  +3.61000000000e-08
  +3.56700000000e-08
  +3.48900000000e-08
  +3.42500000000e-08
  +3.33200000000e-08
  +3.28300000000e-08
  +3.21200000000e-08
  +3.12600000000e-08
  +3.09800000000e-08
  +2.99100000000e-08
  +2.95600000000e-08
  +2.88500000000e-08
  +2.81400000000e-08
  +2.76400000000e-08
  +2.70000000000e-08
  +2.63600000000e-08
  +2.57900000000e-08
  +2.52200000000e-08
  +2.47300000000e-08
  +2.40900000000e-08
  +2.35200000000e-08
  +2.32300000000e-08
  +2.23800000000e-08
  +2.18100000000e-08
  +2.17400000000e-08
  +2.07500000000e-08
  +2.06800000000e-08
  +1.97500000000e-08
  +1.96800000000e-08
  +1.89700000000e-08
  +1.86900000000e-08
  +1.81200000000e-08
  +1.76200000000e-08
  +1.73400000000e-08
  +1.67000000000e-08
  +1.64800000000e-08
  +1.59200000000e-08
  +1.57700000000e-08
  +1.51300000000e-08
  +1.47800000000e-08
  +1.43500000000e-08
  +1.42100000000e-08
  +1.35700000000e-08
  +1.32900000000e-08
  +1.30700000000e-08
  +1.25800000000e-08
  +1.22900000000e-08
  +1.20100000000e-08
  +1.16500000000e-08
  +1.13000000000e-08
  +1.08700000000e-08
  +1.09400000000e-08
  +1.01600000000e-08
  +1.03700000000e-08
  +9.73400000000e-09
  +9.80500000000e-09
  +9.16600000000e-09
  +9.02400000000e-09
  +8.81100000000e-09
  +8.74000000000e-09
  +8.59800000000e-09
  +8.02900000000e-09
  +8.24200000000e-09
  +7.95800000000e-09
  +8.10000000000e-09
  +8.17100000000e-09
  +8.10000000000e-09
  +8.38400000000e-09
  +8.95300000000e-09
  +9.66300000000e-09
  +1.06600000000e-08
  +1.20100000000e-08
  +1.42800000000e-08
  +1.72700000000e-08
  +2.11700000000e-08
  +2.70700000000e-08
  +3.48900000000e-08
  +4.54000000000e-08
  +6.04000000000e-08
  +8.05800000000e-08
  +1.08600000000e-07
  +1.46400000000e-07
  +1.98900000000e-07
  +2.70100000000e-07
  +3.68200000000e-07
  +5.01900000000e-07
  +6.85100000000e-07
  +9.36000000000e-07
  +1.27800000000e-06
  +1.74600000000e-06
  +2.38400000000e-06
  +3.25300000000e-06
  +4.43300000000e-06
  +6.03200000000e-06
  +8.18700000000e-06
  +1.10800000000e-05
  +1.49100000000e-05
  +1.99600000000e-05
  +2.65100000000e-05
  +3.48300000000e-05
  +4.51700000000e-05
  +5.76200000000e-05
  +7.20800000000e-05
  +8.80900000000e-05
  +1.04900000000e-04
  +1.21400000000e-04
  +1.36200000000e-04
  +1.48300000000e-04
  +1.56400000000e-04
  +1.60100000000e-04
  +1.59500000000e-04
  +1.54900000000e-04
  +1.47100000000e-04
  +1.37100000000e-04
  +1.25800000000e-04
  +1.13800000000e-04
  +1.01800000000e-04
  +9.02000000000e-05
  +7.91800000000e-05
  +6.89500000000e-05
  +5.95600000000e-05
  +5.10300000000e-05
  +4.32900000000e-05
  +3.62900000000e-05
  +2.99600000000e-05
  +2.42300000000e-05
  +1.90400000000e-05
  +1.43400000000e-05
  +1.00600000000e-05
  +6.17200000000e-06
  +2.62500000000e-06
  -6.14800000000e-07
  -3.57800000000e-06
  -6.29100000000e-06
  -8.77900000000e-06
  -1.10600000000e-05
  -1.31600000000e-05
  -1.50900000000e-05
  -1.68700000000e-05
  -1.85000000000e-05
  -2.00000000000e-05
  -2.13800000000e-05
  -2.26500000000e-05
  -2.38100000000e-05
  -2.48800000000e-05
  -2.58600000000e-05
  -2.67600000000e-05
  -2.75700000000e-05
  -2.83200000000e-05
  -2.89900000000e-05
  -2.96000000000e-05
  -3.01500000000e-05
  -3.06400000000e-05
  -3.10800000000e-05
  -3.14700000000e-05
  -3.18100000000e-05
  -3.21000000000e-05
  -3.23500000000e-05
  -3.25600000000e-05
  -3.27300000000e-05
  -3.28700000000e-05
  -3.29700000000e-05
  -3.30400000000e-05
  -3.30700000000e-05
  -3.30800000000e-05
  -3.30600000000e-05
  -3.30200000000e-05
  -3.29500000000e-05
  -3.28600000000e-05
  -3.27500000000e-05
  -3.26200000000e-05
  -3.24600000000e-05
  -3.22900000000e-05
  -3.21100000000e-05
  -3.19000000000e-05
  -3.16900000000e-05
  -3.14600000000e-05
  -3.12100000000e-05
  -3.09600000000e-05
  -3.06900000000e-05
  -3.04100000000e-05
  -3.01300000000e-05
  -2.98300000000e-05
  -2.95300000000e-05
  -2.92200000000e-05
  -2.89000000000e-05
  -2.85700000000e-05
  -2.82500000000e-05
  -2.79100000000e-05
  -2.75700000000e-05
  -2.72300000000e-05
  -2.68900000000e-05
  -2.65400000000e-05
  -2.61900000000e-05
  -2.58300000000e-05
  -2.54800000000e-05
  -2.51200000000e-05
  -2.47700000000e-05
  -2.44100000000e-05
  -2.40500000000e-05
  -2.36900000000e-05
  -2.33400000000e-05
  -2.29800000000e-05
  -2.26300000000e-05
  -2.22700000000e-05
  -2.19200000000e-05
  -2.15700000000e-05
  -2.12200000000e-05
  -2.08700000000e-05
  -2.05300000000e-05
  -2.01800000000e-05
  -1.98400000000e-05
  -1.95000000000e-05
  -1.91700000000e-05
  -1.88400000000e-05
  -1.85100000000e-05
  -1.81800000000e-05
  -1.78600000000e-05
  -1.75400000000e-05
  -1.72200000000e-05
</dep>
<dep gm v>
  -1.48600000000e-05
  -1.93000000000e-03
  -3.39700000000e-08
  -3.32500000000e-08
  -3.25500000000e-08
  -3.18600000000e-08
  -3.11800000000e-08
  -3.05100000000e-08
  -2.98500000000e-08
  -2.92100000000e-08
  -2.85700000000e-08
  -2.79500000000e-08
  -2.73400000000e-08
  -2.67300000000e-08
  -2.61400000000e-08
  -2.55600000000e-08
  -2.49800000000e-08
  -2.44200000000e-08
  -2.38700000000e-08
  -2.33300000000e-08
  -2.27900000000e-08
  -2.22700000000e-08
  -2.17600000000e-08
  -2.12500000000e-08
  -2.07500000000e-08
  -2.02700000000e-08
  -1.97900000000e-08
  -1.93200000000e-08
  -1.88600000000e-08
  -1.84100000000e-08
  -1.79700000000e-08
  -1.75300000000e-08
  -1.71100000000e-08
  -1.66900000000e-08
  -1.62800000000e-08
  -1.58800000000e-08
  -1.54900000000e-08
  -1.51000000000e-08
  -1.47200000000e-08
  -1.43500000000e-08
  -1.39900000000e-08
  -1.36300000000e-08
  -1.32800000000e-08
  -1.29400000000e-08
  -1.26100000000e-08
  -1.22800000000e-08
  -1.19600000000e-08
  -1.16500000000e-08
  -1.13400000000e-08
  -1.10400000000e-08
  -1.07400000000e-08
  -1.04500000000e-08
  -1.01700000000e-08
  -9.89400000000e-09
  -9.62400000000e-09
  -9.36100000000e-09
  -9.10300000000e-09
  -8.85100000000e-09
  -8.60300000000e-09
  -8.36200000000e-09
  -8.12700000000e-09
  -7.89500000000e-09
  -7.67100000000e-09
  -7.45300000000e-09
  -7.23500000000e-09
  -7.02800000000e-09
  -6.82100000000e-09
  -6.62400000000e-09
  -6.42700000000e-09
  -6.23700000000e-09
  -6.05000000000e-09
  -5.86900000000e-09
  -5.69300000000e-09
  -5.51900000000e-09
  -5.35300000000e-09
  -5.18800000000e-09
  -5.02900000000e-09
  -4.87100000000e-09
  -4.71900000000e-09
  -4.57200000000e-09
  -4.42800000000e-09
  -4.28600000000e-09
  -4.15000000000e-09
  -4.01700000000e-09
  -3.88700000000e-09
  -3.76100000000e-09
  -3.63800000000e-09
  -3.51800000000e-09
  -3.40100000000e-09
  -3.28800000000e-09
  -3.18000000000e-09
  -3.07000000000e-09
  -2.96900000000e-09
  -2.86500000000e-09
  -2.76800000000e-09
  -2.67000000000e-09
  -2.57800000000e-09
  -2.48800000000e-09
  -2.40000000000e-09
  -2.31200000000e-09
  -2.22600000000e-09
  -2.14600000000e-09
  -2.06300000000e-09
  -1.98400000000e-09
  -1.90300000000e-09
  -1.82100000000e-09
  -1.74000000000e-09
  -1.65600000000e-09
  -1.56700000000e-09
  -1.47000000000e-09
  -1.36400000000e-09
  -1.24300000000e-09
  -1.10100000000e-09
  -9.28000000000e-10
  -7.16200000000e-10
  -4.45500000000e-10
  -9.66300000000e-11
  +3.57400000000e-10
  +9.61400000000e-10
  +1.76700000000e-09
  +2.85300000000e-09
  +4.31700000000e-09
  +6.30600000000e-09
  +9.00800000000e-09
  +1.26900000000e-08
  +1.77100000000e-08
  +2.45600000000e-08
  +3.39200000000e-08
  +4.67000000000e-08
  +6.41600000000e-08
  +8.80100000000e-08
  +1.20500000000e-07
  +1.64900000000e-07
  +2.25200000000e-07
  +3.07100000000e-07
  +4.17800000000e-07
  +5.67000000000e-07
  +7.66600000000e-07
  +1.03200000000e-06
  +1.38000000000e-06
  +1.83200000000e-06
  +2.40800000000e-06
  +3.12900000000e-06
  +4.01000000000e-06
  +5.05800000000e-06
  +6.27200000000e-06
  +7.63500000000e-06
  +9.11700000000e-06
  +1.06800000000e-05
  +1.22800000000e-05
  +1.38800000000e-05
  +1.54300000000e-05
  +1.69000000000e-05
  +1.82700000000e-05
  +1.95300000000e-05
  +2.06700000000e-05
  +2.16800000000e-05
  +2.25900000000e-05
  +2.33800000000e-05
  +2.40700000000e-05
  +2.46600000000e-05
  +2.51700000000e-05
  +2.56100000000e-05
  +2.59700000000e-05
