<Qucs Dataset 0.0.19>
<indep vin 101>
  +0.00000000000000000000e+00
  +1.00000000000000002082e-02
  +2.00000000000000004163e-02
  +2.99999999999999988898e-02
  +4.00000000000000008327e-02
  +5.00000000000000027756e-02
  +5.99999999999999977796e-02
  +7.00000000000000066613e-02
  +8.00000000000000016653e-02
  +8.99999999999999966693e-02
  +1.00000000000000005551e-01
  +1.10000000000000000555e-01
  +1.19999999999999995559e-01
  +1.30000000000000004441e-01
  +1.40000000000000013323e-01
  +1.49999999999999994449e-01
  +1.60000000000000003331e-01
  +1.70000000000000012212e-01
  +1.79999999999999993339e-01
  +1.90000000000000002220e-01
  +2.00000000000000011102e-01
  +2.09999999999999992228e-01
  +2.20000000000000001110e-01
  +2.30000000000000009992e-01
  +2.39999999999999991118e-01
  +2.50000000000000000000e-01
  +2.60000000000000008882e-01
  +2.70000000000000017764e-01
  +2.80000000000000026645e-01
  +2.89999999999999980016e-01
  +2.99999999999999988898e-01
  +3.09999999999999997780e-01
  +3.20000000000000006661e-01
  +3.30000000000000015543e-01
  +3.40000000000000024425e-01
  +3.50000000000000033307e-01
  +3.59999999999999986677e-01
  +3.69999999999999995559e-01
  +3.80000000000000004441e-01
  +3.90000000000000013323e-01
  +4.00000000000000022204e-01
  +4.10000000000000031086e-01
  +4.19999999999999984457e-01
  +4.29999999999999993339e-01
  +4.40000000000000002220e-01
  +4.50000000000000011102e-01
  +4.60000000000000019984e-01
  +4.70000000000000028866e-01
  +4.79999999999999982236e-01
  +4.89999999999999991118e-01
  +5.00000000000000000000e-01
  +5.10000000000000008882e-01
  +5.20000000000000017764e-01
  +5.30000000000000026645e-01
  +5.40000000000000035527e-01
  +5.50000000000000044409e-01
  +5.60000000000000053291e-01
  +5.70000000000000062172e-01
  +5.79999999999999960032e-01
  +5.89999999999999968914e-01
  +5.99999999999999977796e-01
  +6.09999999999999986677e-01
  +6.19999999999999995559e-01
  +6.30000000000000004441e-01
  +6.40000000000000013323e-01
  +6.50000000000000022204e-01
  +6.60000000000000031086e-01
  +6.70000000000000039968e-01
  +6.80000000000000048850e-01
  +6.90000000000000057732e-01
  +7.00000000000000066613e-01
  +7.09999999999999964473e-01
  +7.19999999999999973355e-01
  +7.29999999999999982236e-01
  +7.39999999999999991118e-01
  +7.50000000000000000000e-01
  +7.60000000000000008882e-01
  +7.70000000000000017764e-01
  +7.80000000000000026645e-01
  +7.90000000000000035527e-01
  +8.00000000000000044409e-01
  +8.10000000000000053291e-01
  +8.20000000000000062172e-01
  +8.30000000000000071054e-01
  +8.39999999999999968914e-01
  +8.49999999999999977796e-01
  +8.59999999999999986677e-01
  +8.69999999999999995559e-01
  +8.80000000000000004441e-01
  +8.90000000000000013323e-01
  +9.00000000000000022204e-01
  +9.10000000000000031086e-01
  +9.20000000000000039968e-01
  +9.30000000000000048850e-01
  +9.40000000000000057732e-01
  +9.50000000000000066613e-01
  +9.59999999999999964473e-01
  +9.69999999999999973355e-01
  +9.79999999999999982236e-01
  +9.89999999999999991118e-01
  +1.00000000000000000000e+00
</indep>
<dep V1.I vin>
  +0.00000000000000000000e+00
  +0.00000000000000000000e+00
  +0.00000000000000000000e+00
  +0.00000000000000000000e+00
  +0.00000000000000000000e+00
  +0.00000000000000000000e+00
  +0.00000000000000000000e+00
  +0.00000000000000000000e+00
  +0.00000000000000000000e+00
  +0.00000000000000000000e+00
  +0.00000000000000000000e+00
  +0.00000000000000000000e+00
  +0.00000000000000000000e+00
  +0.00000000000000000000e+00
  +0.00000000000000000000e+00
  +0.00000000000000000000e+00
  +0.00000000000000000000e+00
  +0.00000000000000000000e+00
  +0.00000000000000000000e+00
  +0.00000000000000000000e+00
  +0.00000000000000000000e+00
  +0.00000000000000000000e+00
  +0.00000000000000000000e+00
  +0.00000000000000000000e+00
  +0.00000000000000000000e+00
  +0.00000000000000000000e+00
  +0.00000000000000000000e+00
  +0.00000000000000000000e+00
  +0.00000000000000000000e+00
  +0.00000000000000000000e+00
  +0.00000000000000000000e+00
  +0.00000000000000000000e+00
  +0.00000000000000000000e+00
  +0.00000000000000000000e+00
  +0.00000000000000000000e+00
  +0.00000000000000000000e+00
  +0.00000000000000000000e+00
  +0.00000000000000000000e+00
  +0.00000000000000000000e+00
  +0.00000000000000000000e+00
  +0.00000000000000000000e+00
  +0.00000000000000000000e+00
  +0.00000000000000000000e+00
  +0.00000000000000000000e+00
  +0.00000000000000000000e+00
  +0.00000000000000000000e+00
  +0.00000000000000000000e+00
  +0.00000000000000000000e+00
  +0.00000000000000000000e+00
  +0.00000000000000000000e+00
  +0.00000000000000000000e+00
  +0.00000000000000000000e+00
  +0.00000000000000000000e+00
  +0.00000000000000000000e+00
  +0.00000000000000000000e+00
  +0.00000000000000000000e+00
  +0.00000000000000000000e+00
  +0.00000000000000000000e+00
  +0.00000000000000000000e+00
  +0.00000000000000000000e+00
  +0.00000000000000000000e+00
  +0.00000000000000000000e+00
  +0.00000000000000000000e+00
  +0.00000000000000000000e+00
  +0.00000000000000000000e+00
  +0.00000000000000000000e+00
  +0.00000000000000000000e+00
  +0.00000000000000000000e+00
  +0.00000000000000000000e+00
  +0.00000000000000000000e+00
  +0.00000000000000000000e+00
  +0.00000000000000000000e+00
  +0.00000000000000000000e+00
  +0.00000000000000000000e+00
  +0.00000000000000000000e+00
  +0.00000000000000000000e+00
  +0.00000000000000000000e+00
  +0.00000000000000000000e+00
  +0.00000000000000000000e+00
  +0.00000000000000000000e+00
  +0.00000000000000000000e+00
  +0.00000000000000000000e+00
  +0.00000000000000000000e+00
  +0.00000000000000000000e+00
  +0.00000000000000000000e+00
  +0.00000000000000000000e+00
  +0.00000000000000000000e+00
  +0.00000000000000000000e+00
  +0.00000000000000000000e+00
  +0.00000000000000000000e+00
  +0.00000000000000000000e+00
  +0.00000000000000000000e+00
  +0.00000000000000000000e+00
  +0.00000000000000000000e+00
  +0.00000000000000000000e+00
  +0.00000000000000000000e+00
  +0.00000000000000000000e+00
  +0.00000000000000000000e+00
  +0.00000000000000000000e+00
  +0.00000000000000000000e+00
  +0.00000000000000000000e+00
</dep>
<dep V2.I vin>
  -2.10306983264279503688e-08
  -2.63415791770898135892e-08
  -3.35034524486451394680e-08
  -4.31197912144555945764e-08
  -5.59745360657668087188e-08
  -7.30738558540101295362e-08
  -9.56892952694205229976e-08
  -1.25396636885884890312e-07
  -1.64102005074959835938e-07
  -2.14044806859320688402e-07
  -2.77767756283600227414e-07
  -3.58049048837865874555e-07
  -4.57800742926324576409e-07
  -5.79947783207332443145e-07
  -7.27309044628889768251e-07
  -9.02501590528400631538e-07
  -1.10788230968256932755e-06
  -1.34553032694759076331e-06
  -1.61726193288360458526e-06
  -1.92466169299677897610e-06
  -2.26911480465758378869e-06
  -2.65183408751865208971e-06
  -3.07388103339511337651e-06
  -3.53618171794649301728e-06
  -4.03953827322968596217e-06
  -4.58463670453043178985e-06
  -5.17205196965509839471e-06
  -5.80225117855198347012e-06
  -6.47559553733009604550e-06
  -7.19234135991833739283e-06
  -7.95264018151097670990e-06
  -8.75653776647480593456e-06
  -9.60397160141302562810e-06
  -1.04947662438996950273e-05
  -1.14286255674323275608e-05
  -1.24051203956130151151e-05
  -1.34236690923344043893e-05
  -1.44835070375418049622e-05
  -1.55836378342298025707e-05
  -1.67227528800388571787e-05
  -1.78990924437106310816e-05
  -1.91101891834872267425e-05
  -2.03523480524443053864e-05
  -2.16194378056030204116e-05
  -2.28994166108152213393e-05
  -2.41595391454333120978e-05
  -2.51270251879722779234e-05
  -2.49711745157476394273e-05
  -2.44912274664340549706e-05
  -2.39471672217703455748e-05
  -2.33794458361253362864e-05
  -2.28004376455327950829e-05
  -2.22159287161792403905e-05
  -2.16292480700167776475e-05
  -2.10425696421248989432e-05
  -2.04574411420958862011e-05
  -1.98750361319193917563e-05
  -1.92962882976769771253e-05
  -1.87219690611980116995e-05
  -1.81527353252014837185e-05
  -1.75891603080204089347e-05
  -1.70317542368996952505e-05
  -1.64809786643518201617e-05
  -1.59372566116691087145e-05
  -1.54009798867288410411e-05
  -1.48725144297337990911e-05
  -1.43522042444431906488e-05
  -1.38403742882165121941e-05
  -1.33373325756431430986e-05
  -1.28433716716991401215e-05
  -1.23587696960742842844e-05
  -1.18837909213165531918e-05
  -1.14186860178803925277e-05
  -1.09636919751008866638e-05
  -1.05190317057049005254e-05
  -1.00849133204870903538e-05
  -9.66152903738327895316e-06
  -9.24905366389879707561e-06
  -8.84764256300398372864e-06
  -8.45742898133897380271e-06
  -8.07852059032676008115e-06
  -7.71099508027684371397e-06
  -7.35489468774271277270e-06
  -7.01021969252761353083e-06
  -6.67692130522145259981e-06
  -6.35489513321288728050e-06
  -6.04397767334133550728e-06
  -5.74394982849072354650e-06
  -5.45455227285168307762e-06
  -5.17551551494182100711e-06
  -4.90660085373971830000e-06
  -4.64763899012760674538e-06
  -4.39854854915956082441e-06
  -4.15932430965622958229e-06
  -3.93000050985895801273e-06
  -3.71060526206930881184e-06
  -3.50112093483239891767e-06
  -3.30145727851052274166e-06
  -3.11143713352914010224e-06
  -2.93079220106282013671e-06
  -2.75916779920433268263e-06
</dep>
<dep _net0.V vin>
  +1.00000000000000000000e+00
  +1.00000000000000000000e+00
  +1.00000000000000000000e+00
  +1.00000000000000000000e+00
  +1.00000000000000000000e+00
  +1.00000000000000000000e+00
  +1.00000000000000000000e+00
  +1.00000000000000000000e+00
  +1.00000000000000000000e+00
  +1.00000000000000000000e+00
  +1.00000000000000000000e+00
  +1.00000000000000000000e+00
  +1.00000000000000000000e+00
  +1.00000000000000000000e+00
  +1.00000000000000000000e+00
  +1.00000000000000000000e+00
  +1.00000000000000000000e+00
  +1.00000000000000000000e+00
  +1.00000000000000000000e+00
  +1.00000000000000000000e+00
  +1.00000000000000000000e+00
  +1.00000000000000000000e+00
  +1.00000000000000000000e+00
  +1.00000000000000000000e+00
  +1.00000000000000000000e+00
  +1.00000000000000000000e+00
  +1.00000000000000000000e+00
  +1.00000000000000000000e+00
  +1.00000000000000000000e+00
  +1.00000000000000000000e+00
  +1.00000000000000000000e+00
  +1.00000000000000000000e+00
  +1.00000000000000000000e+00
  +1.00000000000000000000e+00
  +1.00000000000000000000e+00
  +1.00000000000000000000e+00
  +1.00000000000000000000e+00
  +1.00000000000000000000e+00
  +1.00000000000000000000e+00
  +1.00000000000000000000e+00
  +1.00000000000000000000e+00
  +1.00000000000000000000e+00
  +1.00000000000000000000e+00
  +1.00000000000000000000e+00
  +1.00000000000000000000e+00
  +1.00000000000000000000e+00
  +1.00000000000000000000e+00
  +1.00000000000000000000e+00
  +1.00000000000000000000e+00
  +1.00000000000000000000e+00
  +1.00000000000000000000e+00
  +1.00000000000000000000e+00
  +1.00000000000000000000e+00
  +1.00000000000000000000e+00
  +1.00000000000000000000e+00
  +1.00000000000000000000e+00
  +1.00000000000000000000e+00
  +1.00000000000000000000e+00
  +1.00000000000000000000e+00
  +1.00000000000000000000e+00
  +1.00000000000000000000e+00
  +1.00000000000000000000e+00
  +1.00000000000000000000e+00
  +1.00000000000000000000e+00
  +1.00000000000000000000e+00
  +1.00000000000000000000e+00
  +1.00000000000000000000e+00
  +1.00000000000000000000e+00
  +1.00000000000000000000e+00
  +1.00000000000000000000e+00
  +1.00000000000000000000e+00
  +1.00000000000000000000e+00
  +1.00000000000000000000e+00
  +1.00000000000000000000e+00
  +1.00000000000000000000e+00
  +1.00000000000000000000e+00
  +1.00000000000000000000e+00
  +1.00000000000000000000e+00
  +1.00000000000000000000e+00
  +1.00000000000000000000e+00
  +1.00000000000000000000e+00
  +1.00000000000000000000e+00
  +1.00000000000000000000e+00
  +1.00000000000000000000e+00
  +1.00000000000000000000e+00
  +1.00000000000000000000e+00
  +1.00000000000000000000e+00
  +1.00000000000000000000e+00
  +1.00000000000000000000e+00
  +1.00000000000000000000e+00
  +1.00000000000000000000e+00
  +1.00000000000000000000e+00
  +1.00000000000000000000e+00
  +1.00000000000000000000e+00
  +1.00000000000000000000e+00
  +1.00000000000000000000e+00
  +1.00000000000000000000e+00
  +1.00000000000000000000e+00
  +1.00000000000000000000e+00
  +1.00000000000000000000e+00
  +1.00000000000000000000e+00
</dep>
<dep vi.V vin>
  +0.00000000000000000000e+00
  +1.00000000000000002082e-02
  +2.00000000000000004163e-02
  +2.99999999999999988898e-02
  +4.00000000000000008327e-02
  +5.00000000000000027756e-02
  +5.99999999999999977796e-02
  +7.00000000000000066613e-02
  +8.00000000000000016653e-02
  +8.99999999999999966693e-02
  +1.00000000000000005551e-01
  +1.10000000000000000555e-01
  +1.19999999999999995559e-01
  +1.30000000000000004441e-01
  +1.40000000000000013323e-01
  +1.49999999999999994449e-01
  +1.60000000000000003331e-01
  +1.70000000000000012212e-01
  +1.79999999999999993339e-01
  +1.90000000000000002220e-01
  +2.00000000000000011102e-01
  +2.09999999999999992228e-01
  +2.20000000000000001110e-01
  +2.30000000000000009992e-01
  +2.39999999999999991118e-01
  +2.50000000000000000000e-01
  +2.60000000000000008882e-01
  +2.70000000000000017764e-01
  +2.80000000000000026645e-01
  +2.89999999999999980016e-01
  +2.99999999999999988898e-01
  +3.09999999999999997780e-01
  +3.20000000000000006661e-01
  +3.30000000000000015543e-01
  +3.40000000000000024425e-01
  +3.50000000000000033307e-01
  +3.59999999999999986677e-01
  +3.69999999999999995559e-01
  +3.80000000000000004441e-01
  +3.90000000000000013323e-01
  +4.00000000000000022204e-01
  +4.10000000000000031086e-01
  +4.19999999999999984457e-01
  +4.29999999999999993339e-01
  +4.40000000000000002220e-01
  +4.50000000000000011102e-01
  +4.60000000000000019984e-01
  +4.70000000000000028866e-01
  +4.79999999999999982236e-01
  +4.89999999999999991118e-01
  +5.00000000000000000000e-01
  +5.10000000000000008882e-01
  +5.20000000000000017764e-01
  +5.30000000000000026645e-01
  +5.40000000000000035527e-01
  +5.50000000000000044409e-01
  +5.60000000000000053291e-01
  +5.70000000000000062172e-01
  +5.79999999999999960032e-01
  +5.89999999999999968914e-01
  +5.99999999999999977796e-01
  +6.09999999999999986677e-01
  +6.19999999999999995559e-01
  +6.30000000000000004441e-01
  +6.40000000000000013323e-01
  +6.50000000000000022204e-01
  +6.60000000000000031086e-01
  +6.70000000000000039968e-01
  +6.80000000000000048850e-01
  +6.90000000000000057732e-01
  +7.00000000000000066613e-01
  +7.09999999999999964473e-01
  +7.19999999999999973355e-01
  +7.29999999999999982236e-01
  +7.39999999999999991118e-01
  +7.50000000000000000000e-01
  +7.60000000000000008882e-01
  +7.70000000000000017764e-01
  +7.80000000000000026645e-01
  +7.90000000000000035527e-01
  +8.00000000000000044409e-01
  +8.10000000000000053291e-01
  +8.20000000000000062172e-01
  +8.30000000000000071054e-01
  +8.39999999999999968914e-01
  +8.49999999999999977796e-01
  +8.59999999999999986677e-01
  +8.69999999999999995559e-01
  +8.80000000000000004441e-01
  +8.90000000000000013323e-01
  +9.00000000000000022204e-01
  +9.10000000000000031086e-01
  +9.20000000000000039968e-01
  +9.30000000000000048850e-01
  +9.40000000000000057732e-01
  +9.50000000000000066613e-01
  +9.59999999999999964473e-01
  +9.69999999999999973355e-01
  +9.79999999999999982236e-01
  +9.89999999999999991118e-01
  +1.00000000000000000000e+00
</dep>
<dep vo.V vin>
  +9.99856762156182687917e-01
  +9.99819927228017268916e-01
  +9.99770102516480019261e-01
  +9.99702971770259574136e-01
  +9.99612895587346450554e-01
  +9.99492590193715835234e-01
  +9.99332785967803061133e-01
  +9.99121903562396385112e-01
  +9.98845806105465916502e-01
  +9.98487701396069571302e-01
  +9.98028266044131084911e-01
  +9.97446032251293024373e-01
  +9.96718016084570557211e-01
  +9.95820491995118906026e-01
  +9.94729765684722488928e-01
  +9.93422793460289610401e-01
  +9.91877540863672302329e-01
  +9.90073046418940450053e-01
  +9.87989238841803008029e-01
  +9.85606616457027184808e-01
  +9.82905890656693204122e-01
  +9.79867636227513938429e-01
  +9.76471946799649104243e-01
  +9.72698083054015061322e-01
  +9.68524102491107208301e-01
  +9.63926459613061226150e-01
  +9.58879563209318774852e-01
  +9.53355271711435081627e-01
  +9.47322295386226143066e-01
  +9.40745455057910073826e-01
  +9.33584725897001144190e-01
  +9.25793977596040873479e-01
  +9.17319304191144047067e-01
  +9.08096796735178068971e-01
  +8.98049524625989747939e-01
  +8.87083335882915657855e-01
  +8.75080828359726670129e-01
  +8.61892393184756189228e-01
  +8.47322380097095484430e-01
  +8.31106706126614747099e-01
  +8.12874449053439529500e-01
  +7.92076883063881242997e-01
  +7.67842695495095428626e-01
  +7.38638304331163064731e-01
  +7.01279265508264693096e-01
  +6.46657486323140684448e-01
  +4.94515398893447866158e-01
  +2.58788283660699391930e-01
  +2.13628979170440880253e-01
  +1.87596024131832184167e-01
  +1.68739011098843372238e-01
  +1.53811740762670012828e-01
  +1.41418598287789798462e-01
  +1.30817389823939311810e-01
  +1.21560682171039213806e-01
  +1.13355382796676784629e-01
  +1.05997818703910784421e-01
  +9.93400682165651582878e-02
  +9.32709607438473864427e-02
  +8.77046348658284125044e-02
  +8.25732839075469793322e-02
  +7.78223598715623854361e-02
  +7.34072906826919724388e-02
  +6.92911665551684263775e-02
  +6.54430681014691595365e-02
  +6.18368317622007279688e-02
  +5.84501207542129641581e-02
  +5.52637141483096616668e-02
  +5.22609546946022351932e-02
  +4.94273141546637817534e-02
  +4.67500469327969403466e-02
  +4.42179109503844092188e-02
  +4.18209403334480200876e-02
  +3.95502584305804649745e-02
  +3.73979224862305281718e-02
  +3.53567933140322698815e-02
  +3.34204247788346953119e-02
  +3.15829689610499786401e-02
  +2.98390936519027927254e-02
  +2.81839093946499585908e-02
  +2.66129037171797255823e-02
  +2.51218805804299394335e-02
  +2.37069035228720803588e-02
  +2.23642417273263172106e-02
  +2.10903196110266144547e-02
  +1.98816729784613011045e-02
  +1.87349185385369265688e-02
  +1.76467479439786911755e-02
  +1.66139593481116898399e-02
  +1.56335327314847116753e-02
  +1.47027350238365939195e-02
  +1.38192140497107596175e-02
  +1.29810297462051027484e-02
  +1.21865963751326966680e-02
  +1.14345561029449982460e-02
  +1.07236335542124083808e-02
  +1.00525144425403223369e-02
  +9.41976588707046924576e-03
  +8.82379556953906407646e-03
  +8.26284061788780388458e-03
  +7.73498181804238571502e-03
</dep>
